"pin [mm]","Freq [GHz]","dB(S(1,1)) []","ang_deg(S(1,1)) [deg]"
0,2,-0.00679131925343769,-44.3730593205384
0,2.00025,-0.00679310656308979,-44.3789632956395
0,2.0005,-0.00679489446117283,-44.3848675142669
0,2.00075,-0.00679668294793615,-44.3907719766028
0,2.001,-0.00679847202362042,-44.3966766828297
0,2.00125,-0.00680026168847115,-44.4025816331302
0,2.0015,-0.00680205194273479,-44.4084868276873
0,2.00175,-0.00680384278665683,-44.414392266684
0,2.002,-0.00680563422048085,-44.4202979503038
0,2.00225,-0.0068074262444533,-44.4262038787301
0,2.0025,-0.00680921885882162,-44.4321100521468
0,2.00275,-0.00681101206382839,-44.4380164707377
0,2.003,-0.00681280585972395,-44.4439231346872
0,2.00325,-0.00681460024675379,-44.4498300441796
0,2.0035,-0.00681639522516438,-44.4557371993995
0,2.00375,-0.00681819079519638,-44.4616446005319
0,2.004,-0.00681998695710785,-44.4675522477618
0,2.00425,-0.00682178371113945,-44.4734601412745
0,2.0045,-0.00682358105753572,-44.4793682812555
0,2.00475,-0.00682537899655085,-44.4852766678905
0,2.005,-0.00682717752843033,-44.4911853013656
0,2.00525,-0.00682897665341677,-44.4970941818669
0,2.0055,-0.00683077637176821,-44.5030033095808
0,2.00575,-0.0068325766837263,-44.5089126846939
0,2.006,-0.00683437758953751,-44.514822307393
0,2.00625,-0.00683617908945697,-44.5207321778653
0,2.0065,-0.00683798118372634,-44.526642296298
0,2.00675,-0.00683978387260174,-44.5325526628787
0,2.007,-0.0068415871563277,-44.538463277795
0,2.00725,-0.00684339103515358,-44.5443741412349
0,2.0075,-0.0068451955093326,-44.5502852533867
0,2.00775,-0.00684700057911124,-44.5561966144387
0,2.008,-0.00684880624474176,-44.5621082245795
0,2.00825,-0.00685061250647255,-44.5680200839981
0,2.0085,-0.00685241936455298,-44.5739321928835
0,2.00875,-0.00685422681923821,-44.5798445514249
0,2.009,-0.00685603487077084,-44.5857571598121
0,2.00925,-0.00685784351940989,-44.5916700182346
0,2.0095,-0.00685965276540472,-44.5975831268826
0,2.00975,-0.00686146260900182,-44.6034964859462
0,2.01,-0.00686327305045729,-44.6094100956158
0,2.01025,-0.00686508409002051,-44.6153239560822
0,2.0105,-0.00686689572794374,-44.6212380675362
0,2.01075,-0.0068687079644802,-44.627152430169
0,2.011,-0.00687052079988217,-44.633067044172
0,2.01125,-0.00687233423440094,-44.6389819097366
0,2.0115,-0.00687414826828877,-44.6448970270548
0,2.01175,-0.00687596290180082,-44.6508123963186
0,2.012,-0.0068777781351884,-44.6567280177203
0,2.01225,-0.00687959396870376,-44.6626438914523
0,2.0125,-0.00688141040260013,-44.6685600177075
0,2.01275,-0.00688322743713655,-44.6744763966787
0,2.013,-0.00688504507255755,-44.6803930285593
0,2.01325,-0.00688686330912312,-44.6863099135426
0,2.0135,-0.00688868214708746,-44.6922270518223
0,2.01375,-0.00689050158670187,-44.6981444435923
0,2.014,-0.0068923216282273,-44.7040620890467
0,2.01425,-0.00689414227190926,-44.70997998838
0,2.0145,-0.00689596351800968,-44.7158981417867
0,2.01475,-0.00689778536678082,-44.7218165494617
0,2.015,-0.00689960781848074,-44.7277352116
0,2.01525,-0.00690143087336075,-44.7336541283969
0,2.0155,-0.0069032545316789,-44.7395733000481
0,2.01575,-0.00690507879369035,-44.7454927267492
0,2.016,-0.00690690365965318,-44.7514124086963
0,2.01625,-0.00690872912982158,-44.7573323460856
0,2.0165,-0.00691055520445458,-44.7632525391137
0,2.01675,-0.00691238188380541,-44.7691729879772
0,2.017,-0.0069142091681302,-44.7750936928732
0,2.01725,-0.00691603705769281,-44.7810146539988
0,2.0175,-0.00691786555274262,-44.7869358715515
0,2.01775,-0.0069196946535425,-44.7928573457289
0,2.018,-0.00692152436034957,-44.798779076729
0,2.01825,-0.00692335467341802,-44.80470106475
0,2.0185,-0.00692518559300978,-44.8106233099901
0,2.01875,-0.00692701711938292,-44.8165458126482
0,2.019,-0.00692884925279452,-44.8224685729231
0,2.01925,-0.00693068199350363,-44.8283915910138
0,2.0195,-0.00693251534176927,-44.8343148671198
0,2.01975,-0.00693434929785048,-44.8402384014406
0,2.02,-0.00693618386200724,-44.8461621941762
0,2.02025,-0.0069380190344986,-44.8520862455265
0,2.0205,-0.00693985481558261,-44.858010555692
0,2.02075,-0.00694169120552121,-44.8639351248732
0,2.021,-0.00694352820457247,-44.869859953271
0,2.02125,-0.0069453658130012,-44.8757850410864
0,2.0215,-0.00694720403106354,-44.8817103885207
0,2.02175,-0.00694904285902143,-44.8876359957754
0,2.022,-0.00695088229713679,-44.8935618630525
0,2.02225,-0.00695272234567251,-44.8994879905539
0,2.0225,-0.00695456300488282,-44.9054143784819
0,2.02275,-0.00695640427503735,-44.911341027039
0,2.023,-0.00695824615639321,-44.9172679364282
0,2.02325,-0.0069600886492133,-44.9231951068523
0,2.0235,-0.00696193175375956,-44.9291225385146
0,2.02375,-0.0069637754702968,-44.9350502316188
0,2.024,-0.00696561979908406,-44.9409781863686
0,2.02425,-0.00696746474038714,-44.946906402968
0,2.0245,-0.00696931029446797,-44.9528348816212
0,2.02475,-0.00697115646158944,-44.9587636225329
0,2.025,-0.00697300324201254,-44.9646926259078
0,2.02525,-0.00697485063600786,-44.9706218919509
0,2.0255,-0.0069766986438306,-44.9765514208675
0,2.02575,-0.00697854726575041,-44.9824812128631
0,2.026,-0.00698039650203309,-44.9884112681436
0,2.02625,-0.0069822463529367,-44.9943415869149
0,2.0265,-0.00698409681872995,-45.0002721693834
0,2.02675,-0.00698594789967669,-45.0062030157555
0,2.027,-0.00698779959604562,-45.0121341262382
0,2.02725,-0.00698965190809675,-45.0180655010383
0,2.0275,-0.00699150483609683,-45.0239971403632
0,2.02775,-0.00699335838031553,-45.0299290444206
0,2.028,-0.00699521254101285,-45.0358612134181
0,2.02825,-0.00699706731845846,-45.0417936475639
0,2.0285,-0.00699892271291911,-45.0477263470663
0,2.02875,-0.0070007787246606,-45.0536593121338
0,2.029,-0.00700263535394971,-45.0595925429753
0,2.02925,-0.00700449260105319,-45.0655260397999
0,2.0295,-0.00700635046623685,-45.0714598028169
0,2.02975,-0.00700820894977131,-45.077393832236
0,2.03,-0.0070100680519243,-45.083328128267
0,2.03025,-0.00701192777295776,-45.08926269112
0,2.0305,-0.00701378811314908,-45.0951975210054
0,2.03075,-0.00701564907275827,-45.1011326181339
0,2.031,-0.00701751065205789,-45.1070679827164
0,2.03125,-0.00701937285131663,-45.1130036149639
0,2.0315,-0.00702123567080416,-45.118939515088
0,2.03175,-0.00702309911078531,-45.1248756833004
0,2.032,-0.00702496317153265,-45.1308121198129
0,2.03225,-0.00702682785331874,-45.1367488248378
0,2.0325,-0.00702869315640455,-45.1426857985875
0,2.03275,-0.00703055908107134,-45.1486230412749
0,2.033,-0.00703242562758104,-45.1545605531128
0,2.03325,-0.00703429279620911,-45.1604983343145
0,2.0335,-0.0070361605872204,-45.1664363850937
0,2.03375,-0.00703802900089326,-45.1723747056639
0,2.034,-0.00703989803749059,-45.1783132962394
0,2.03425,-0.00704176769729269,-45.1842521570345
0,2.0345,-0.00704363798056632,-45.1901912882636
0,2.03475,-0.00704550888757923,-45.1961306901417
0,2.035,-0.00704738041861266,-45.2020703628839
0,2.03525,-0.00704925257393242,-45.2080103067055
0,2.0355,-0.00705112535381398,-45.2139505218223
0,2.03575,-0.00705299875852699,-45.2198910084501
0,2.036,-0.0070548727883479,-45.2258317668051
0,2.03625,-0.00705674744354636,-45.2317727971038
0,2.0365,-0.00705862272439688,-45.2377140995629
0,2.03675,-0.00706049863117395,-45.2436556743994
0,2.037,-0.00706237516415111,-45.2495975218306
0,2.03725,-0.00706425232360381,-45.255539642074
0,2.0375,-0.00706613010980462,-45.2614820353474
0,2.03775,-0.00706800852302805,-45.2674247018689
0,2.038,-0.00706988756354956,-45.2733676418568
0,2.03825,-0.00707176723163978,-45.2793108555298
0,2.0385,-0.00707364752758094,-45.2852543431068
0,2.03875,-0.0070755284516456,-45.2911981048069
0,2.039,-0.0070774100041073,-45.2971421408496
0,2.03925,-0.00707929218524634,-45.3030864514545
0,2.0395,-0.00708117499533238,-45.3090310368417
0,2.03975,-0.00708305843464765,-45.3149758972315
0,2.04,-0.00708494250346762,-45.3209210328444
0,2.04025,-0.00708682720206678,-45.3268664439011
0,2.0405,-0.00708871253071965,-45.3328121306229
0,2.04075,-0.00709059848970844,-45.338758093231
0,2.041,-0.00709248507931152,-45.3447043319471
0,2.04125,-0.00709437229980532,-45.3506508469931
0,2.0415,-0.00709626015146242,-45.3565976385913
0,2.04175,-0.00709814863456793,-45.3625447069641
0,2.042,-0.0071000377493983,-45.3684920523343
0,2.04225,-0.00710192749622899,-45.3744396749249
0,2.0425,-0.00710381787534319,-45.3803875749592
0,2.04275,-0.0071057088870183,-45.3863357526608
0,2.043,-0.00710760053153077,-45.3922842082537
0,2.04325,-0.00710949280916281,-45.3982329419619
0,2.0435,-0.00711138572019763,-45.40418195401
0,2.04375,-0.00711327926490972,-45.4101312446226
0,2.044,-0.00711517344358036,-45.4160808140247
0,2.04425,-0.00711706825649273,-45.4220306624417
0,2.0445,-0.00711896370392521,-45.4279807900991
0,2.04475,-0.00712085978616003,-45.4339311972227
0,2.045,-0.00712275650347748,-45.4398818840388
0,2.04525,-0.00712465385615883,-45.4458328507737
0,2.0455,-0.00712655184448535,-45.4517840976541
0,2.04575,-0.00712845046874216,-45.4577356249071
0,2.046,-0.0071303497292086,-45.4636874327599
0,2.04625,-0.00713224962616498,-45.4696395214402
0,2.0465,-0.00713415015989835,-45.4755918911757
0,2.04675,-0.007136051330689,-45.4815445421946
0,2.047,-0.00713795313882305,-45.4874974747253
0,2.04725,-0.00713985558458079,-45.4934506889966
0,2.0475,-0.00714175866824445,-45.4994041852375
0,2.04775,-0.00714366239010109,-45.5053579636773
0,2.048,-0.00714556675043199,-45.5113120245455
0,2.04825,-0.00714747174952517,-45.5172663680721
0,2.0485,-0.00714937738766287,-45.5232209944872
0,2.04875,-0.00715128366513022,-45.5291759040213
0,2.049,-0.00715319058221041,-45.5351310969051
0,2.04925,-0.00715509813919244,-45.5410865733698
0,2.0495,-0.00715700633635952,-45.5470423336465
0,2.04975,-0.00715891517399775,-45.5529983779671
0,2.05,-0.00716082465239031,-45.5589547065633
0,2.05025,-0.00716273477183201,-45.5649113196675
0,2.0505,-0.00716464553260122,-45.570868217512
0,2.05075,-0.00716655693498307,-45.5768254003299
0,2.051,-0.00716846897927331,-45.5827828683541
0,2.05125,-0.00717038166575033,-45.588740621818
0,2.0515,-0.00717229499470988,-45.5946986609555
0,2.05175,-0.00717420896643226,-45.6006569860004
0,2.052,-0.0071761235812113,-45.606615597187
0,2.05225,-0.00717803883933118,-45.6125744947501
0,2.0525,-0.00717995474108281,-45.6185336789243
0,2.05275,-0.00718187128674941,-45.624493149945
0,2.053,-0.00718378847662962,-45.6304529080477
0,2.05325,-0.00718570631100281,-45.636412953468
0,2.0535,-0.00718762479016664,-45.6423732864423
0,2.05375,-0.00718954391440722,-45.6483339072067
0,2.054,-0.00719146368401356,-45.654294815998
0,2.05425,-0.00719338409927852,-45.6602560130532
0,2.0545,-0.00719530516048916,-45.6662174986097
0,2.05475,-0.00719722686793739,-45.6721792729049
0,2.055,-0.0071991492219151,-45.6781413361769
0,2.05525,-0.00720107222271515,-45.6841036886639
0,2.0555,-0.00720299587062558,-45.6900663306042
0,2.05575,-0.00720492016594022,-45.6960292622369
0,2.056,-0.00720684510894904,-45.7019924838009
0,2.05625,-0.0072087706999478,-45.7079559955358
0,2.0565,-0.0072106969392255,-45.7139197976813
0,2.05675,-0.00721262382707501,-45.7198838904773
0,2.057,-0.00721455136379112,-45.7258482741644
0,2.05725,-0.0072164795496667,-45.7318129489831
0,2.0575,-0.00721840838499558,-45.7377779151744
0,2.05775,-0.00722033787007256,-45.7437431729795
0,2.058,-0.0072222680051876,-45.7497087226402
0,2.05825,-0.00722419879063938,-45.7556745643983
0,2.0585,-0.00722613022671882,-45.7616406984959
0,2.05875,-0.00722806231372362,-45.7676071251757
0,2.059,-0.00722999505195148,-45.7735738446804
0,2.05925,-0.00723192844168946,-45.7795408572532
0,2.0595,-0.00723386248323914,-45.7855081631376
0,2.05975,-0.00723579717689434,-45.7914757625773
0,2.06,-0.00723773252295179,-45.7974436558164
0,2.06025,-0.0072396685217063,-45.8034118430994
0,2.0605,-0.00724160517345846,-45.8093803246708
0,2.06075,-0.00724354247850307,-45.8153491007759
0,2.061,-0.00724548043713493,-45.8213181716598
0,2.06125,-0.00724741904965463,-45.8272875375684
0,2.0615,-0.00724935831636085,-45.8332571987475
0,2.06175,-0.00725129823754645,-45.8392271554434
0,2.062,-0.00725323881351395,-45.8451974079029
0,2.06225,-0.00725518004455914,-45.8511679563727
0,2.0625,-0.00725712193098259,-45.8571388011002
0,2.06275,-0.00725906447308299,-45.8631099423329
0,2.063,-0.00726100767115996,-45.8690813803188
0,2.06325,-0.00726295152551119,-45.8750531153061
0,2.0635,-0.0072648960364402,-45.8810251475431
0,2.06375,-0.0072668412042437,-45.886997477279
0,2.064,-0.00726878702922037,-45.8929701047627
0,2.06425,-0.00727073351167564,-45.8989430302439
0,2.0645,-0.00727268065190914,-45.9049162539723
0,2.06475,-0.0072746284502205,-45.9108897761982
0,2.065,-0.00727657690691031,-45.9168635971719
0,2.06525,-0.00727852602228306,-45.9228377171442
0,2.0655,-0.00728047579663835,-45.9288121363664
0,2.06575,-0.00728242623027971,-45.9347868550898
0,2.066,-0.00728437732350965,-45.9407618735663
0,2.06625,-0.00728632907662974,-45.9467371920478
0,2.0665,-0.00728828148994542,-45.952712810787
0,2.06675,-0.00729023456375728,-45.9586887300364
0,2.067,-0.00729218829837171,-45.9646649500493
0,2.06725,-0.0072941426940874,-45.970641471079
0,2.0675,-0.00729609775121267,-45.9766182933793
0,2.06775,-0.00729805347005391,-45.9825954172043
0,2.068,-0.00730000985091268,-45.9885728428083
0,2.06825,-0.00730196689409444,-45.9945505704461
0,2.0685,-0.00730392459990073,-46.0005286003728
0,2.06875,-0.00730588296864472,-46.0065069328439
0,2.069,-0.00730784200062798,-46.0124855681149
0,2.06925,-0.00730980169615691,-46.0184645064421
0,2.0695,-0.00731176205553597,-46.0244437480818
0,2.06975,-0.0073137230790735,-46.0304232932907
0,2.07,-0.00731568476707781,-46.036403142326
0,2.07025,-0.00731764711985339,-46.0423832954451
0,2.0705,-0.00731961013771146,-46.0483637529056
0,2.07075,-0.00732157382095552,-46.0543445149658
0,2.071,-0.00732353816989487,-46.0603255818839
0,2.07125,-0.00732550318484073,-46.0663069539189
0,2.0715,-0.00732746886610048,-46.0722886313298
0,2.07175,-0.00732943521397761,-46.078270614376
0,2.072,-0.00733140222878819,-46.0842529033173
0,2.07225,-0.00733336991083958,-46.0902354984138
0,2.0725,-0.00733533826044012,-46.096218399926
0,2.07275,-0.0073373072778991,-46.1022016081148
0,2.073,-0.00733927696352872,-46.1081851232413
0,2.07325,-0.00734124731764214,-46.1141689455669
0,2.0735,-0.00734321834054384,-46.1201530753534
0,2.07375,-0.00734519003254987,-46.1261375128632
0,2.074,-0.00734716239397049,-46.1321222583586
0,2.07425,-0.00734913542511792,-46.1381073121027
0,2.0745,-0.00735110912630048,-46.1440926743585
0,2.07475,-0.00735308349783519,-46.1500783453896
0,2.075,-0.0073550585400333,-46.15606432546
0,2.07525,-0.00735703425320603,-46.1620506148339
0,2.0755,-0.00735901063766848,-46.1680372137759
0,2.07575,-0.00736098769373189,-46.174024122551
0,2.076,-0.00736296542171328,-46.1800113414245
0,2.07625,-0.00736494382192388,-46.185998870662
0,2.0765,-0.00736692289467783,-46.1919867105295
0,2.07675,-0.00736890264029409,-46.1979748612934
0,2.077,-0.00737088305908196,-46.2039633232204
0,2.07725,-0.00737286415135848,-46.2099520965775
0,2.0775,-0.00737484591743873,-46.2159411816322
0,2.07775,-0.00737682835764168,-46.2219305786522
0,2.078,-0.00737881147228436,-46.2279202879057
0,2.07825,-0.00738079526167511,-46.2339103096611
0,2.0785,-0.00738277972613676,-46.2399006441872
0,2.07875,-0.00738476486598344,-46.2458912917532
0,2.079,-0.00738675068153604,-46.2518822526288
0,2.07925,-0.00738873717311063,-46.2578735270837
0,2.0795,-0.00739072434102327,-46.2638651153882
0,2.07975,-0.00739271218559583,-46.269857017813
0,2.08,-0.00739470070713954,-46.275849234629
0,2.08025,-0.0073966899059811,-46.2818417661076
0,2.0805,-0.00739867978243561,-46.2878346125204
0,2.08075,-0.00740067033682395,-46.2938277741395
0,2.081,-0.0074026615694651,-46.2998212512373
0,2.08125,-0.00740465348067803,-46.3058150440866
0,2.0815,-0.00740664607078459,-46.3118091529606
0,2.08175,-0.00740863934010278,-46.3178035781327
0,2.082,-0.00741063328895737,-46.3237983198768
0,2.08225,-0.00741262791766828,-46.3297933784672
0,2.0825,-0.00741462322655546,-46.3357887541784
0,2.08275,-0.00741661921593882,-46.3417844472854
0,2.083,-0.00741861588614797,-46.3477804580636
0,2.08325,-0.00742061323749704,-46.3537767867886
0,2.0835,-0.00742261127031272,-46.3597734337365
0,2.08375,-0.00742460998491785,-46.3657703991837
0,2.084,-0.00742660938163526,-46.3717676834071
0,2.08425,-0.0074286094607897,-46.3777652866837
0,2.0845,-0.00743061022270209,-46.3837632092912
0,2.08475,-0.00743261166769814,-46.3897614515075
0,2.085,-0.00743461379610359,-46.3957600136108
0,2.08525,-0.00743661660824417,-46.4017588958798
0,2.0855,-0.00743862010444175,-46.4077580985936
0,2.08575,-0.00744062428502398,-46.4137576220315
0,2.086,-0.0074426291503166,-46.4197574664733
0,2.08625,-0.0074446347006463,-46.4257576321992
0,2.0865,-0.00744664093633399,-46.4317581194896
0,2.08675,-0.00744864785771601,-46.4377589286255
0,2.087,-0.00745065546511135,-46.4437600598882
0,2.08725,-0.00745266375885153,-46.4497615135594
0,2.0875,-0.00745467273926325,-46.455763289921
0,2.08775,-0.00745668240667224,-46.4617653892555
0,2.088,-0.00745869276140905,-46.4677678118456
0,2.08825,-0.00746070380380329,-46.4737705579745
0,2.0885,-0.00746271553417973,-46.4797736279259
0,2.08875,-0.00746472795287471,-46.4857770219836
0,2.089,-0.00746674106021301,-46.4917807404319
0,2.08925,-0.0074687548565223,-46.4977847835556
0,2.0895,-0.007470769342137,-46.5037891516397
0,2.08975,-0.00747278451738478,-46.5097938449696
0,2.09,-0.00747480038259909,-46.5157988638313
0,2.09025,-0.00747681693811147,-46.521804208511
0,2.0905,-0.00747883418425151,-46.5278098792952
0,2.09075,-0.00748085212134882,-46.5338158764711
0,2.091,-0.00748287074973976,-46.5398222003259
0,2.09125,-0.00748489006975488,-46.5458288511475
0,2.0915,-0.00748691008172765,-46.5518358292241
0,2.09175,-0.00748893078598864,-46.5578431348441
0,2.092,-0.00749095218287517,-46.5638507682966
0,2.09225,-0.00749297427271684,-46.5698587298709
0,2.0925,-0.00749499705585195,-46.5758670198567
0,2.09275,-0.00749702053261493,-46.5818756385441
0,2.093,-0.00749904470333633,-46.5878845862237
0,2.09325,-0.00750106956835543,-46.5938938631864
0,2.0935,-0.00750309512800279,-46.5999034697234
0,2.09375,-0.00750512138261766,-46.6059134061265
0,2.094,-0.00750714833253449,-46.6119236726877
0,2.09425,-0.00750917597809349,-46.6179342696997
0,2.0945,-0.00751120431962812,-46.6239451974551
0,2.09475,-0.0075132333574738,-46.6299564562473
0,2.095,-0.00751526309197075,-46.6359680463701
0,2.09525,-0.00751729352345629,-46.6419799681174
0,2.0955,-0.00751932465226775,-46.6479922217838
0,2.09575,-0.00752135647874344,-46.654004807664
0,2.096,-0.00752338900322164,-46.6600177260536
0,2.09625,-0.00752542222604355,-46.6660309772479
0,2.0965,-0.00752745614754747,-46.6720445615433
0,2.09675,-0.00752949076806977,-46.6780584792361
0,2.097,-0.00753152608795357,-46.6840727306233
0,2.09725,-0.00753356210754392,-46.6900873160021
0,2.0975,-0.00753559882717237,-46.6961022356703
0,2.09775,-0.00753763624718591,-46.7021174899259
0,2.098,-0.00753967436792669,-46.7081330790674
0,2.09825,-0.00754171318972916,-46.7141490033939
0,2.0985,-0.00754375271294512,-46.7201652632045
0,2.09875,-0.00754579293791,-46.7261818587991
0,2.099,-0.0075478338649698,-46.7321987904778
0,2.09925,-0.00754987549446477,-46.7382160585411
0,2.0995,-0.00755191782674189,-46.7442336632899
0,2.09975,-0.0075539608621443,-46.7502516050258
0,2.1,-0.00755600460101415,-46.7562698840504
0,2.10025,-0.00755804904369844,-46.762288500666
0,2.1005,-0.00756009419053741,-46.7683074551752
0,2.10075,-0.00756214004188191,-46.774326747881
0,2.101,-0.00756418659807506,-46.7803463790868
0,2.10125,-0.00756623385946098,-46.7863663490966
0,2.1015,-0.00756828182638665,-46.7923866582145
0,2.10175,-0.00757033049920389,-46.7984073067454
0,2.102,-0.00757237987825101,-46.8044282949942
0,2.10225,-0.0075744299638808,-46.8104496232665
0,2.1025,-0.00757648075643928,-46.8164712918683
0,2.10275,-0.0075785322562725,-46.822493301106
0,2.103,-0.00758058446373419,-46.8285156512863
0,2.10325,-0.00758263737916944,-46.8345383427165
0,2.1035,-0.00758469100292813,-46.8405613757041
