"Freq [GHz]","dB(S(1,1)) []","ang_deg(S(1,1)) [deg]"
2.7,-0.0220705666197878,152.084253717102
2.7005,-0.0220839260792199,152.029802819582
2.701,-0.0220974695484213,151.975176540595
2.7015,-0.0221112014143745,151.920371732708
2.702,-0.0221251261957288,151.865385172187
2.7025,-0.0221392485476067,151.810213556676
2.703,-0.0221535732665883,151.75485350278
2.7035,-0.0221681052959298,151.699301543567
2.704,-0.0221828497310096,151.643554125973
2.7045,-0.0221978118250024,151.58760760811
2.705,-0.0222129969947973,151.531458256473
2.7055,-0.0222284108272,151.475102243039
2.706,-0.0222440590853935,151.418535642261
2.7065,-0.0222599477156863,151.361754427939
2.707,-0.022276082854568,151.304754469972
2.7075,-0.0222924708360971,151.247531530988
2.708,-0.0223091181996108,151.19008126284
2.7085,-0.0223260316977825,151.132399202954
2.709,-0.0223432183050785,151.074480770551
2.7095,-0.0223606852265831,151.016321262698
2.71,-0.0223784399072536,150.957915850214
2.7105,-0.0223964900415966,150.899259573405
2.711,-0.0224148435838157,150.840347337623
2.7115,-0.0224335087584512,150.781173908646
2.712,-0.022452494071507,150.721733907866
2.7125,-0.0224718083221412,150.662021807277
2.713,-0.022491460614921,150.602031924246
2.7135,-0.022511460372673,150.541758416079
2.714,-0.0225318173499847,150.481195274337
2.7145,-0.0225525416473561,150.420336318922
2.715,-0.0225736437260885,150.359175191903
2.7155,-0.0225951344239232,150.297705351069
2.716,-0.0226170249714476,150.235920063214
2.7165,-0.0226393270093874,150.173812397107
2.717,-0.022662052606767,150.111375216165
2.7175,-0.0226852142800121,150.04860117079
2.718,-0.0227088250130905,149.985482690362
2.7185,-0.0227328982786713,149.922011974872
2.719,-0.0227574480604546,149.858180986167
2.7195,-0.022782488876672,149.793981438791
2.72,-0.0228080358048811,149.729404790405
2.7205,-0.022834104508102,149.664442231757
2.721,-0.022860711262395,149.59908467617
2.7215,-0.0228878729859651,149.533322748547
2.722,-0.0229156072699086,149.467146773826
2.7225,-0.0229439324106674,149.4005467649
2.723,-0.0229728674443494,149.33351240993
2.7235,-0.023002432183017,149.266033059042
2.724,-0.0230326472530461,149.19809771037
2.7245,-0.0230635341357466,149.129694995386
2.725,-0.0230951152103672,149.060813163511
2.7255,-0.0231274137996241,148.991440065927
2.726,-0.0231604542179821,148.921563138569
2.7265,-0.0231942618228378,148.851169384234
2.727,-0.0232288630687867,148.78024535376
2.7275,-0.0232642855652566,148.708777126214
2.728,-0.0233005581376999,148.636750288029
2.7285,-0.0233377108925791,148.564149911022
2.729,-0.0233757752864894,148.490960529229
2.7295,-0.023414784199646,148.417166114478
2.73,-0.0234547720140816,148.342750050611
2.7305,-0.0234957746969455,148.267695106289
2.731,-0.0235378298892164,148.191983406256
2.7315,-0.0235809770002644,148.115596400998
2.732,-0.0236252573087523,148.038514834652
2.7325,-0.0236707140702694,147.960718711079
2.733,-0.0237173926323275,147.882187257957
2.7335,-0.0237653405572087,147.802898888764
2.734,-0.0238146077533409,147.722831162507
2.7345,-0.0238652466158531,147.641960741044
2.735,-0.02391731217708,147.560263343806
2.7355,-0.0239708622677939,147.477713699773
2.736,-0.0240259576900822,147.394285496467
2.7365,-0.0240826624028114,147.309951325769
2.737,-0.0241410437207668,147.224682626318
2.7375,-0.0242011725286057,147.13844962224
2.738,-0.0242631235109205,147.05122125793
2.7385,-0.0243269753997788,146.962965128587
2.739,-0.0243928112413342,146.873647406182
2.7395,-0.0244607186831422,146.78323276049
2.74,-0.0245307902840722,146.691684274821
2.7405,-0.0246031238488817,146.598963356008
2.741,-0.024677822789686,146.505029638201
2.7415,-0.0247549965168649,146.409840879965
2.742,-0.0248347608621345,146.313352854132
2.7425,-0.0249172385368893,146.215519229802
2.743,-0.025002559629192,146.116291445827
2.7435,-0.025090862143165,146.015618575074
2.744,-0.0251822925850224,145.913447178645
2.7445,-0.0252770066003514,145.809721149201
2.745,-0.0253751696678573,145.704381542416
2.7455,-0.0254769578553875,145.597366395498
2.746,-0.0255825586446306,145.488610531619
2.7465,-0.0256921718318121,145.37804534894
2.747,-0.0258060105124245,145.265598592818
2.7475,-0.0259243021590943,145.1511941096
2.748,-0.0260472898028021,145.034751580251
2.7485,-0.0261752333289147,144.916186231856
2.749,-0.0263084109009806,144.795408524832
2.7495,-0.0264471205268681,144.67232381343
2.75,-0.0265916817837566,144.546831976827
2.7505,-0.0267424377206401,144.418827017797
2.751,-0.0268997569595564,144.288196625599
2.7515,-0.0270640360195714,144.154821699283
2.752,-0.0272357018909497,144.018575827211
2.7525,-0.027415214890732,143.879324717992
2.753,-0.0276030718354332,143.736925577496
2.7535,-0.0277998095717257,143.591226425876
2.754,-0.0280060089119964,143.442065347772
2.7545,-0.0282222990286951,143.289269667934
2.755,-0.0284493623695913,143.132655043497
2.7555,-0.0286879401656295,142.972024462913
2.756,-0.0289388386144817,142.807167140149
2.7565,-0.0292029358360158,142.637857291184
2.757,-0.029481189711816,142.463852777926
2.7575,-0.0297746467393442,142.284893602521
2.758,-0.0300844520534735,142.100700232458
2.7585,-0.0304118607945133,141.910971733906
2.759,-0.0307582510332003,141.71538368722
2.7595,-0.0311251385009323,141.513585854421
2.76,-0.0315141934188374,141.305199563578
2.7605,-0.0319272597739915,141.089814769292
2.761,-0.0323663774574536,140.866986741566
2.7615,-0.0328338077593098,140.636232327212
2.762,-0.0333320628142929,140.39702571815
2.7625,-0.0338639397120212,140.148793649187
2.763,-0.0344325601340402,139.890909933707
2.7635,-0.0350414165630493,139.622689228567
2.764,-0.0356944263367854,139.343379898645
2.7645,-0.0363959951024164,139.052155826062
2.765,-0.0371510915821064,138.748106977984
2.7655,-0.0379653360074713,138.430228508484
2.766,-0.0388451051460851,138.097408122561
2.7665,-0.0397976575635575,137.748411371359
2.767,-0.0408312836864117,137.381864473892
2.7675,-0.0419554864184726,136.996234167921
2.768,-0.0431811996025891,136.589803975418
2.7685,-0.0445210536279659,136.160646119104
2.769,-0.0459897001222374,135.706588135836
2.7695,-0.0476042111606768,135.225172986945
2.77,-0.0493845730840109,134.713611146862
2.7705,-0.0513543012820879,134.168722734728
2.771,-0.0535412107977857,133.586867204765
2.7715,-0.0559783892339485,132.963857382191
2.772,-0.0587054345099815,132.294853654607
2.7725,-0.0617700424283336,131.574232807985
2.773,-0.0652300606145565,130.795424192903
2.7735,-0.0691561704513555,129.950703418771
2.774,-0.0736354236157569,129.030930304296
2.7745,-0.0787759547186455,128.02521291793
2.775,-0.0847133318785677,126.920472553411
2.7755,-0.0916192173793519,125.700874377985
2.776,-0.0997133301275875,124.347073675797
2.7765,-0.109280194027967,122.835205587883
2.777,-0.120692925734686,121.135513043207
2.7775,-0.134447533296212,119.21045676395
2.778,-0.151213148101499,117.012072358083
2.7785,-0.171906762057288,114.478215460725
2.779,-0.197806129633908,111.527138703514
2.7795,-0.230722593786389,108.049529340361
2.78,-0.273267867122469,103.896636842115
2.7805,-0.32926483692848,98.8623537490348
2.781,-0.404363116628051,92.6560535879786
2.7815,-0.506880349277313,84.861988591899
2.782,-0.648625942080383,74.8820837672152
2.7825,-0.844396277140326,61.8698944696928
2.783,-1.10550619511769,44.7099751956566
2.7835,-1.41642875538349,22.2370149233057
2.784,-1.69060145349222,-5.89088017812418
2.7845,-1.77499307952194,-37.6580531007235
2.785,-1.60616756699066,-68.6130056710899
2.7855,-1.30145662528099,-94.9129525531382
2.786,-1.00116585997384,-115.490174002174
2.7865,-0.762445625762163,-131.117963000047
2.787,-0.587023970381669,-142.998906720274
2.7875,-0.460646485713635,-152.163562636083
2.788,-0.369120920905945,-159.368005424614
2.7885,-0.301819181620648,-165.141577459833
2.789,-0.251408545434735,-169.852399798434
2.7895,-0.212935972847227,-173.758913889082
2.79,-0.183047745673056,-177.045458937842
2.7905,-0.159445109690516,-179.845891077719
2.791,-0.140526815108038,177.7408312857
2.7915,-0.125158035708053,175.64028418133
2.792,-0.112520597102938,173.795592853499
2.7925,-0.102014858875803,172.162647890154
2.793,-0.0931945115491773,170.706774347398
2.7935,-0.0857225639366842,169.400374498841
2.794,-0.0793411590947041,168.221233380933
2.7945,-0.0738505502263027,167.151282678178
2.795,-0.0690942371775609,166.175686414167
2.7955,-0.0649483089231631,165.282155882736
2.796,-0.0613136995063052,164.460430130665
2.7965,-0.0581104902309536,163.701877547427
2.797,-0.0552736680233776,162.999187126239
2.7975,-0.0527499329772387,162.34612687661
2.798,-0.0504952707374526,161.737353060482
2.7985,-0.0484730886137667,161.168258278491
2.799,-0.0466527715255638,160.634849531828
2.7995,-0.0450085536784869,160.133649615655
2.8,-0.0435186298792315,159.661616822533
2.8005,-0.0421644503180905,159.216079126666
2.801,-0.040930156968692,158.794679904251
2.8015,-0.0398021301491755,158.395332907394
2.802,-0.0387686214041682,158.01618470895
2.8025,-0.0378194544959924,157.655583216169
2.803,-0.0369457804889937,157.312051142844
2.8035,-0.0361398760632162,156.984263555151
2.804,-0.0353949765799899,156.671028781757
2.8045,-0.0347051372416804,156.371272116134
2.805,-0.0340651170850267,156.084021847231
2.8055,-0.033470281627075,155.808397240446
2.806,-0.0329165208224672,155.543598159242
2.8065,-0.0324001796476828,155.288896072542
2.807,-0.0319179991445814,155.043626237209
2.8075,-0.0314670661644747,154.807180880663
2.808,-0.0310447703791024,154.579003237794
2.8085,-0.0306487673845771,154.358582320054
2.809,-0.0302769469331614,154.145448314153
2.8095,-0.0299274054959731,153.939168523847
2.81,-0.0295984224961161,153.739343781604
2.8105,-0.0292884396627355,153.545605267976
2.811,-0.0289960430471859,153.357611685733
2.8115,-0.0287199473168265,153.175046743504
2.812,-0.0284589820032626,152.997616910134
2.8125,-0.028212079432474,152.825049406448
2.813,-0.0279782641061374,152.65709040566
2.8135,-0.0277566433384736,152.493503417623
2.814,-0.0275463989821084,152.334067835392
2.8145,-0.02734678010071,152.178577625421
2.815,-0.0271570964668762,152.026840145113
2.8155,-0.0269767127808347,151.878675073532
2.816,-0.0268050435202317,151.733913442856
2.8165,-0.0266415483436045,151.592396759667
2.817,-0.0264857279806308,151.453976206535
2.8175,-0.0263371205512179,151.318511915456
2.818,-0.0261952982631236,151.18587230573
2.8185,-0.0260598644442993,151.055933479704
2.819,-0.0259304508718328,150.928578670586
2.8195,-0.0258067153641033,150.803697737157
2.82,-0.0256883396069912,150.681186700811
2.8205,-0.0255750271884847,150.56094732085
2.821,-0.0254665018192563,150.442886704391
2.8215,-0.0253625057193238,150.32691694765
2.822,-0.0252627981534119,150.212954805689
2.8225,-0.0251671540994907,150.100921388039
2.823,-0.0250753630369216,149.990741877859
2.8235,-0.0249872278420681,149.882345272535
2.824,-0.0249025637806255,149.775664143842
2.8245,-0.0248211975871474,149.670634415963
2.825,-0.0247429666232296,149.567195159837
2.8255,-0.0246677181067973,149.465288402455
2.826,-0.0245953084057217,149.364858949845
2.8265,-0.02452560238968,149.265854222624
2.827,-0.0244584728349034,149.168224103079
2.8275,-0.0243937998768467,149.071920792856
2.828,-0.0243314705065386,148.976898680392
2.8285,-0.0242713781065891,148.883114217347
2.829,-0.0242134220233872,148.7905258033
2.8295,-0.0241575071722466,148.699093678104
2.83,-0.0241035436727074,148.608779821285
2.8305,-0.024051446511326,148.51954785797
2.831,-0.0240011352296442,148.431362970854
2.8315,-0.0239525336352183,148.344191817753
2.832,-0.0239055695337669,148.258002454331
2.8325,-0.0238601744807159,148.172764261644
2.833,-0.0238162835505187,148.088447878132
2.8335,-0.0237738351223644,148.005025135759
2.834,-0.0237327706809029,147.922469
2.8345,-0.0236930346308425,147.840753513418
2.835,-0.023654574124309,147.759853742572
2.8355,-0.0236173388999675,147.679745728032
2.836,-0.0235812811330256,147.600406437297
2.8365,-0.023546355295241,147.521813720414
2.837,-0.023512518024252,147.443946268121
2.8375,-0.0234797280014322,147.366783572353
2.838,-0.0234479458377368,147.290305888945
2.8385,-0.023417133966876,147.21449420241
2.839,-0.0233872565453371,147.139330192634
2.8395,-0.0233582793587132,147.064796203391
2.84,-0.0233301697339159,146.99087521255
2.8405,-0.0233028964568652,146.917550803864
2.841,-0.0232764296952185,146.844807140268
2.8415,-0.0232507409258617,146.772628938557
2.842,-0.0232258028667656,146.701001445392
2.8425,-0.0232015894129423,146.629910414544
2.843,-0.0231780755762283,146.559342085291
2.8435,-0.0231552374286146,146.489283161918
2.844,-0.0231330520488939,146.419720794241
2.8445,-0.02311149747242,146.350642559108
2.845,-0.0230905526437585,146.282036442806
2.8455,-0.0230701973720321,146.213890824336
2.846,-0.0230504122888135,146.146194459499
2.8465,-0.0230311788083915,146.07893646575
2.847,-0.0230124790902295,146.012106307774
2.8475,-0.0229942960035231,145.945693783753
2.848,-0.0229766130937174,145.879689012271
2.8485,-0.0229594145508086,145.814082419839
2.849,-0.0229426851794083,145.748864728991
2.8495,-0.0229264103703775,145.684026946935
2.85,-0.0229105760740016,145.619560354714
2.8505,-0.0228951687745532,145.555456496868
2.851,-0.0228801754662316,145.491707171552
2.8515,-0.0228655836303081,145.4283044211
2.852,-0.0228513812135025,145.365240523004
2.8525,-0.0228375566074241,145.302507981294
2.853,-0.0228240986291044,145.240099518294
2.8535,-0.0228109965024739,145.178008066727
2.854,-0.0227982398408083,145.116226762173
2.8545,-0.0227858186300217,145.054748935838
2.855,-0.022773723212807,144.993568107638
2.8555,-0.0227619442735423,144.932677979569
2.856,-0.0227504728239451,144.872072429356
2.8565,-0.022739300189431,144.811745504367
2.857,-0.022728417996094,144.75169141578
2.8575,-0.0227178181583622,144.69190453298
2.858,-0.022707492867198,144.632379378198
2.8585,-0.0226974345788757,144.573110621353
2.859,-0.022687636004288,144.514093075114
2.8595,-0.0226780900987327,144.455321690147
2.86,-0.0226687900522053,144.396791550558
2.8605,-0.0226597292800939,144.338497869515
2.861,-0.0226509014143415,144.280435985037
2.8615,-0.0226423002949906,144.222601355951
2.862,-0.0226339199621014,144.164989558003
2.8625,-0.0226257546480587,144.10759628012
2.863,-0.0226177987701815,144.050417320812
2.8635,-0.0226100469237154,143.993448584709
2.864,-0.0226024938750717,143.936686079236
2.8645,-0.0225951345554182,143.880125911404
2.865,-0.0225879640545036,143.823764284727
2.8655,-0.0225809776147792,143.767597496242
2.866,-0.0225741706257644,143.711621933656
2.8665,-0.0225675386186404,143.655834072579
2.867,-0.022561077261098,143.600230473871
2.8675,-0.0225547823523725,143.544807781077
2.868,-0.0225486498185146,143.489562717954
2.8685,-0.022542675707853,143.434492086094
2.869,-0.022536856186616,143.379592762619
2.8695,-0.0225311875347792,143.32486169797
2.87,-0.0225256661420539,143.270295913763
2.8705,-0.0225202885040378,143.215892500724
2.871,-0.0225150512185419,143.161648616698
2.8715,-0.0225099509820453,143.10756148472
2.872,-0.0225049845863013,143.05362839116
2.8725,-0.0225001489150747,142.999846683923
2.873,-0.0224954409410243,142.946213770718
2.8735,-0.0224908577226748,142.892727117375
2.874,-0.0224863964015415,142.839384246233
2.8745,-0.022482054199343,142.786182734562
2.875,-0.0224778284153453,142.73312021306
2.8755,-0.0224737164237736,142.680194364378
2.876,-0.0224697156713666,142.627402921708
2.8765,-0.0224658236749865,142.574743667411
2.877,-0.022462038019344,142.52221443169
2.8775,-0.0224583563547889,142.469813091305
2.878,-0.0224547763952062,142.417537568332
2.8785,-0.0224512959159739,142.365385828959
2.879,-0.0224479127519987,142.313355882321
2.8795,-0.0224446247958353,142.26144577937
2.88,-0.0224414299958579,142.209653611784
2.8805,-0.0224383263545158,142.157977510909
2.881,-0.0224353119266344,142.10641564673
2.8815,-0.0224323848177993,142.054966226878
2.882,-0.0224295431827755,142.003627495666
2.8825,-0.0224267852240029,141.952397733157
2.883,-0.022424109190126,141.901275254253
2.8835,-0.0224215133746067,141.85025840782
2.884,-0.0224189961143396,141.799345575838
2.8845,-0.0224165557883625,141.748535172568
2.885,-0.0224141908165853,141.697825643756
2.8855,-0.0224118996585662,141.647215465852
2.886,-0.0224096808123346,141.596703145255
2.8865,-0.0224075328132666,141.54628721758
2.887,-0.0224054542329576,141.495966246949
2.8875,-0.0224034436781953,141.445738825294
2.888,-0.0224014997899058,141.395603571694
2.8885,-0.0223996212421789,141.345559131716
2.889,-0.0223978067413066,141.295604176787
2.8895,-0.0223960550248584,141.245737403578
2.89,-0.0223943648607863,141.195957533405
2.8905,-0.0223927350465604,141.146263311649
2.891,-0.0223911644083339,141.096653507194
2.8915,-0.0223896518001274,141.047126911878
2.892,-0.0223881961030595,140.997682339955
2.8925,-0.0223867962245754,140.948318627584
2.893,-0.022385451097727,140.899034632321
2.8935,-0.0223841596804566,140.849829232628
2.894,-0.0223829209549107,140.8007013274
2.8945,-0.0223817339267839,140.751649835496
2.895,-0.0223805976246675,140.702673695292
2.8955,-0.0223795110994287,140.653771864242
2.896,-0.022378473423612,140.604943318448
2.8965,-0.0223774836908457,140.556187052246
2.897,-0.0223765410152903,140.507502077801
2.8975,-0.0223756445310783,140.458887424711
2.898,-0.0223747933917876,140.41034213963
2.8985,-0.0223739867699315,140.361865285885
2.899,-0.0223732238564468,140.31345594312
2.8995,-0.022372503860224,140.265113206937
2.9,-0.0223718260076299,140.216836188554
