"dis [mm]","Freq [GHz]","dB(S(1,1)) []","ang_deg(S(1,1)) [deg]"
-15,2.7,-0.00582249748373331,-69.1595572707918
-15,2.7005,-0.00582351976178163,-69.172418853661
-15,2.701,-0.00582454218833051,-69.1852804633687
-15,2.7015,-0.00582556476341571,-69.1981420999158
-15,2.702,-0.00582658748707684,-69.2110037633034
-15,2.7025,-0.00582761035935256,-69.2238654535326
-15,2.703,-0.00582863338027475,-69.2367271706046
-15,2.7035,-0.00582965654987919,-69.2495889145203
-15,2.704,-0.00583067986820934,-69.2624506852809
-15,2.7045,-0.0058317033352971,-69.2753124828874
-15,2.705,-0.00583272695117726,-69.288174307341
-15,2.7055,-0.0058337507158904,-69.3010361586426
-15,2.706,-0.00583477462947036,-69.3138980367933
-15,2.7065,-0.00583579869195192,-69.3267599417942
-15,2.707,-0.00583682290337566,-69.3396218736464
-15,2.7075,-0.00583784726377445,-69.3524838323509
-15,2.708,-0.00583887177318887,-69.3653458179088
-15,2.7085,-0.00583989643164406,-69.3782078303211
-15,2.709,-0.00584092123918735,-69.3910698695889
-15,2.7095,-0.00584194619585162,-69.4039319357133
-15,2.71,-0.00584297130166971,-69.4167940286953
-15,2.7105,-0.00584399655668028,-69.4296561485359
-15,2.711,-0.0058450219609133,-69.4425182952362
-15,2.7115,-0.00584604751441032,-69.4553804687972
-15,2.712,-0.0058470732172042,-69.46824266922
-15,2.7125,-0.00584809906932876,-69.4811048965056
-15,2.713,-0.00584912507082459,-69.4939671506551
-15,2.7135,-0.00585015122171876,-69.5068294316694
-15,2.714,-0.00585117752205089,-69.5196917395496
-15,2.7145,-0.00585220397185287,-69.5325540742967
-15,2.715,-0.00585323057116529,-69.5454164359118
-15,2.7155,-0.00585425732001714,-69.5582788243959
-15,2.716,-0.00585528421844226,-69.57114123975
-15,2.7165,-0.0058563112664764,-69.584003681975
-15,2.717,-0.00585733846415532,-69.5968661510721
-15,2.7175,-0.00585836581151188,-69.6097286470422
-15,2.718,-0.00585939330857991,-69.6225911698863
-15,2.7185,-0.00586042095539517,-69.6354537196054
-15,2.719,-0.00586144875198666,-69.6483162962005
-15,2.7195,-0.00586247669839689,-69.6611788996727
-15,2.72,-0.00586350479465101,-69.6740415300228
-15,2.7205,-0.00586453304078862,-69.6869041872519
-15,2.721,-0.00586556143684453,-69.6997668713609
-15,2.7215,-0.00586658998285063,-69.7126295823508
-15,2.722,-0.00586761867884268,-69.7254923202225
-15,2.7225,-0.00586864752486029,-69.7383550849771
-15,2.723,-0.00586967652093247,-69.7512178766155
-15,2.7235,-0.00587070566709981,-69.7640806951385
-15,2.724,-0.00587173496340095,-69.7769435405473
-15,2.7245,-0.00587276440986972,-69.7898064128426
-15,2.725,-0.0058737940065496,-69.8026693120254
-15,2.7255,-0.00587482375347731,-69.8155322380968
-15,2.726,-0.00587585365069633,-69.8283951910575
-15,2.7265,-0.00587688369825014,-69.8412581709085
-15,2.727,-0.00587791389617932,-69.8541211776508
-15,2.7275,-0.00587894424452927,-69.8669842112852
-15,2.728,-0.0058799747433483,-69.8798472718128
-15,2.7285,-0.00588100539268182,-69.8927103592344
-15,2.729,-0.00588203619258103,-69.905573473551
-15,2.7295,-0.00588306714309518,-69.9184366147635
-15,2.73,-0.00588409824427163,-69.9312997828729
-15,2.7305,-0.00588512949616639,-69.9441629778802
-15,2.731,-0.00588616089882583,-69.9570261997863
-15,2.7315,-0.00588719245230213,-69.9698894485922
-15,2.732,-0.00588822415664839,-69.982752724299
-15,2.7325,-0.00588925601191294,-69.9956160269076
-15,2.733,-0.00589028801814503,-70.0084793564192
-15,2.7335,-0.00589132017539201,-70.0213427128346
-15,2.734,-0.00589235248369735,-70.0342060961549
-15,2.7345,-0.00589338494310646,-70.0470695063813
-15,2.735,-0.00589441755365992,-70.0599329435147
-15,2.7355,-0.00589545031539639,-70.0727964075562
-15,2.736,-0.00589648322835452,-70.0856598985069
-15,2.7365,-0.00589751629257007,-70.0985234163678
-15,2.737,-0.005898549508073,-70.1113869611399
-15,2.7375,-0.00589958287489715,-70.1242505328242
-15,2.738,-0.00590061639307248,-70.1371141314218
-15,2.7385,-0.0059016500626251,-70.1499777569338
-15,2.739,-0.00590268388358306,-70.162841409361
-15,2.7395,-0.00590371785597727,-70.1757050887045
-15,2.74,-0.00590475197982904,-70.1885687949652
-15,2.7405,-0.00590578625516543,-70.2014325281442
-15,2.741,-0.00590682068201351,-70.2142962882423
-15,2.7415,-0.00590785526039939,-70.2271600752606
-15,2.742,-0.00590888999034919,-70.2400238891999
-15,2.7425,-0.00590992487188997,-70.2528877300612
-15,2.743,-0.00591095990504784,-70.2657515978454
-15,2.7435,-0.00591199508984989,-70.2786154925533
-15,2.744,-0.00591303042632607,-70.291479414186
-15,2.7445,-0.0059140659145054,-70.3043433627443
-15,2.745,-0.00591510155441686,-70.3172073382291
-15,2.7455,-0.00591613734609141,-70.3300713406412
-15,2.746,-0.00591717328955611,-70.3429353699817
-15,2.7465,-0.00591820938484671,-70.3557994262513
-15,2.747,-0.00591924563199224,-70.3686635094509
-15,2.7475,-0.00592028203102554,-70.3815276195814
-15,2.748,-0.00592131858197852,-70.3943917566437
-15,2.7485,-0.00592235528488694,-70.4072559206387
-15,2.749,-0.00592339213978076,-70.4201201115672
-15,2.7495,-0.00592442914669285,-70.4329843294302
-15,2.75,-0.00592546630566089,-70.4458485742284
-15,2.7505,-0.00592650361671776,-70.4587128459627
-15,2.751,-0.00592754107989632,-70.471577144634
-15,2.7515,-0.00592857869523329,-70.4844414702433
-15,2.752,-0.00592961646276249,-70.4973058227912
-15,2.7525,-0.00593065438251776,-70.5101702022788
-15,2.753,-0.00593169245453293,-70.5230346087068
-15,2.7535,-0.00593273067885051,-70.5358990420761
-15,2.754,-0.00593376905549662,-70.5487635023877
-15,2.7545,-0.00593480758451182,-70.5616279896422
-15,2.755,-0.005935846265929,-70.5744925038407
-15,2.7555,-0.00593688509978583,-70.587357044984
-15,2.756,-0.00593792408611808,-70.6002216130728
-15,2.7565,-0.00593896322495668,-70.6130862081081
-15,2.757,-0.00594000251634221,-70.6259508300908
-15,2.7575,-0.00594104196030562,-70.6388154790216
-15,2.758,-0.00594208155688941,-70.6516801549014
-15,2.7585,-0.00594312130612451,-70.6645448577311
-15,2.759,-0.00594416120804284,-70.6774095875115
-15,2.7595,-0.00594520126268303,-70.6902743442435
-15,2.76,-0.00594624147008665,-70.7031391279279
-15,2.7605,-0.0059472818302798,-70.7160039385655
-15,2.761,-0.00594832234330113,-70.7288687761572
-15,2.7615,-0.00594936300918834,-70.7417336407039
-15,2.762,-0.00595040382797622,-70.7545985322063
-15,2.7625,-0.00595144479969763,-70.7674634506653
-15,2.763,-0.00595248592438834,-70.7803283960817
-15,2.7635,-0.00595352720208699,-70.7931933684564
-15,2.764,-0.00595456863282839,-70.8060583677901
-15,2.7645,-0.00595561021664346,-70.8189233940838
-15,2.765,-0.00595665195357086,-70.8317884473383
-15,2.7655,-0.00595769384364443,-70.8446535275543
-15,2.766,-0.00595873588690185,-70.8575186347327
-15,2.7665,-0.00595977808337791,-70.8703837688743
-15,2.767,-0.00596082043310355,-70.88324892998
-15,2.7675,-0.00596186293612033,-70.8961141180504
-15,2.768,-0.00596290559245627,-70.9089793330866
-15,2.7685,-0.00596394840215101,-70.9218445750893
-15,2.769,-0.00596499136524125,-70.9347098440592
-15,2.7695,-0.00596603448175795,-70.9475751399972
-15,2.77,-0.00596707775173686,-70.9604404629042
-15,2.7705,-0.00596812117521567,-70.9733058127808
-15,2.771,-0.00596916475222531,-70.986171189628
-15,2.7715,-0.00597020848280541,-70.9990365934464
-15,2.772,-0.00597125236698497,-71.0119020242371
-15,2.7725,-0.0059722964048065,-71.0247674820006
-15,2.773,-0.00597334059629805,-71.0376329667378
-15,2.7735,-0.00597438494149633,-71.0504984784496
-15,2.774,-0.00597542944043712,-71.0633640171366
-15,2.7745,-0.00597647409315616,-71.0762295827997
-15,2.775,-0.00597751889968827,-71.0890951754397
-15,2.7755,-0.00597856386006436,-71.1019607950574
-15,2.776,-0.00597960897432213,-71.1148264416535
-15,2.7765,-0.00598065424249734,-71.1276921152289
-15,2.777,-0.00598169966462189,-71.1405578157842
-15,2.7775,-0.00598274524073444,-71.1534235433204
-15,2.778,-0.005983790970864,-71.1662892978381
-15,2.7785,-0.00598483685504727,-71.1791550793381
-15,2.779,-0.0059858828933239,-71.1920208878213
-15,2.7795,-0.00598692908571998,-71.2048867232884
-15,2.78,-0.00598797543227804,-71.2177525857401
-15,2.7805,-0.00598902193302708,-71.2306184751772
-15,2.781,-0.00599006858800478,-71.2434843916005
-15,2.7815,-0.00599111539724209,-71.2563503350108
-15,2.782,-0.00599216236077573,-71.2692163054087
-15,2.7825,-0.00599320947864146,-71.2820823027952
-15,2.783,-0.00599425675087311,-71.2949483271708
-15,2.7835,-0.00599530417750258,-71.3078143785364
-15,2.784,-0.0059963517585666,-71.3206804568928
-15,2.7845,-0.00599739949409803,-71.3335465622406
-15,2.785,-0.0059984473841336,-71.3464126945807
-15,2.7855,-0.00599949542870907,-71.3592788539137
-15,2.786,-0.00600054362784959,-71.3721450402405
-15,2.7865,-0.00600159198159863,-71.3850112535617
-15,2.787,-0.00600264048998906,-71.3978774938781
-15,2.7875,-0.00600368915305085,-71.4107437611905
-15,2.788,-0.0060047379708246,-71.4236100554996
-15,2.7885,-0.00600578694333833,-71.436476376806
-15,2.789,-0.00600683607063167,-71.4493427251106
-15,2.7895,-0.00600788535273266,-71.4622091004141
-15,2.79,-0.00600893478967803,-71.4750755027172
-15,2.7905,-0.00600998438150546,-71.4879419320206
-15,2.791,-0.00601103412824686,-71.5008083883251
-15,2.7915,-0.00601208402993317,-71.5136748716314
-15,2.792,-0.00601313408660015,-71.5265413819402
-15,2.7925,-0.00601418429828741,-71.5394079192521
-15,2.793,-0.0060152346650201,-71.5522744835681
-15,2.7935,-0.0060162851868417,-71.5651410748886
-15,2.794,-0.00601733586377737,-71.5780076932146
-15,2.7945,-0.00601838669586479,-71.5908743385466
-15,2.795,-0.00601943768314068,-71.6037410108854
-15,2.7955,-0.00602048882563406,-71.6166077102317
-15,2.796,-0.00602154012338068,-71.6294744365862
-15,2.7965,-0.00602259157641727,-71.6423411899495
-15,2.797,-0.0060236431847738,-71.6552079703225
-15,2.7975,-0.006024694948487,-71.6680747777058
-15,2.798,-0.00602574686758974,-71.6809416121001
-15,2.7985,-0.00602679894211391,-71.693808473506
-15,2.799,-0.00602785117209914,-71.7066753619244
-15,2.7995,-0.00602890355757153,-71.7195422773558
-15,2.8,-0.00602995609856975,-71.7324092198009
-15,2.8005,-0.0060310087951257,-71.7452761892605
-15,2.801,-0.0060320616472761,-71.7581431857353
-15,2.8015,-0.00603311465505189,-71.7710102092259
-15,2.802,-0.00603416781848883,-71.7838772597329
-15,2.8025,-0.00603522113761786,-71.7967443372572
-15,2.803,-0.00603627461247474,-71.8096114417992
-15,2.8035,-0.00603732824309329,-71.8224785733598
-15,2.804,-0.00603838202950543,-71.8353457319397
-15,2.8045,-0.00603943597174788,-71.8482129175394
-15,2.805,-0.00604049006985254,-71.8610801301596
-15,2.8055,-0.00604154432385227,-71.873947369801
-15,2.806,-0.00604259873378091,-71.8868146364643
-15,2.8065,-0.0060436532996723,-71.8996819301501
-15,2.807,-0.00604470802156122,-71.9125492508591
-15,2.8075,-0.00604576289948054,-71.925416598592
-15,2.808,-0.0060468179334641,-71.9382839733494
-15,2.8085,-0.0060478731235438,-71.9511513751319
-15,2.809,-0.00604892846975733,-71.9640188039402
-15,2.8095,-0.00604998397213466,-71.976886259775
-15,2.81,-0.00605103963070576,-71.989753742637
-15,2.8105,-0.00605209544551122,-72.0026212525267
-15,2.811,-0.00605315141658391,-72.0154887894448
-15,2.8115,-0.0060542075439509,-72.0283563533919
-15,2.812,-0.00605526382765085,-72.0412239443688
-15,2.8125,-0.00605632026771856,-72.0540915623759
-15,2.813,-0.00605737686418207,-72.0669592074141
-15,2.8135,-0.00605843361708004,-72.0798268794838
-15,2.814,-0.00605949052644148,-72.0926945785857
-15,2.8145,-0.00606054759230406,-72.1055623047206
-15,2.815,-0.00606160481469778,-72.1184300578888
-15,2.8155,-0.00606266219365839,-72.1312978380913
-15,2.816,-0.00606371972921489,-72.1441656453285
-15,2.8165,-0.00606477742140692,-72.157033479601
-15,2.817,-0.00606583527026444,-72.1699013409095
-15,2.8175,-0.00606689327581742,-72.1827692292546
-15,2.818,-0.00606795143810356,-72.195637144637
-15,2.8185,-0.00606900975715669,-72.2085050870571
-15,2.819,-0.00607006823300774,-72.2213730565158
-15,2.8195,-0.00607112686568766,-72.2342410530135
-15,2.82,-0.006072185655238,-72.2471090765508
-15,2.8205,-0.0060732446016839,-72.2599771271284
-15,2.821,-0.00607430370506112,-72.2728452047469
-15,2.8215,-0.00607536296540447,-72.2857133094069
-15,2.822,-0.00607642238274198,-72.298581441109
-15,2.8225,-0.00607748195711425,-72.3114495998537
-15,2.823,-0.00607854168854739,-72.3243177856417
-15,2.8235,-0.00607960157708004,-72.3371859984736
-15,2.824,-0.0060806616227422,-72.35005423835
-15,2.8245,-0.00608172182556479,-72.3629225052714
-15,2.825,-0.00608278218558743,-72.3757907992384
-15,2.8255,-0.00608384270284011,-72.3886591202517
-15,2.826,-0.00608490337735375,-72.4015274683117
-15,2.8265,-0.00608596420916122,-72.4143958434192
-15,2.827,-0.00608702519830022,-72.4272642455747
-15,2.8275,-0.00608808634479687,-72.4401326747787
-15,2.828,-0.0060891476486927,-72.4530011310318
-15,2.8285,-0.00609020911001288,-72.4658696143347
-15,2.829,-0.00609127072879412,-72.4787381246878
-15,2.8295,-0.00609233250506834,-72.4916066620918
-15,2.83,-0.00609339443886839,-72.5044752265472
-15,2.8305,-0.00609445653022716,-72.5173438180545
-15,2.831,-0.00609551877918039,-72.5302124366145
-15,2.8315,-0.00609658118575807,-72.5430810822275
-15,2.832,-0.00609764374999209,-72.5559497548942
-15,2.8325,-0.00609870647191918,-72.5688184546152
-15,2.833,-0.00609976935156836,-72.5816871813908
-15,2.8335,-0.00610083238897345,-72.5945559352219
-15,2.834,-0.00610189558416733,-72.6074247161089
-15,2.8345,-0.00610295893718382,-72.6202935240523
-15,2.835,-0.00610402244805677,-72.6331623590526
-15,2.8355,-0.00610508611681517,-72.6460312211106
-15,2.836,-0.00610614994349382,-72.6589001102266
-15,2.8365,-0.00610721392812657,-72.6717690264012
-15,2.837,-0.0061082780707453,-72.684637969635
-15,2.8375,-0.00610934237138097,-72.6975069399285
-15,2.838,-0.0061104068300703,-72.7103759372822
-15,2.8385,-0.00611147144684229,-72.7232449616968
-15,2.839,-0.00611253622173078,-72.7361140131726
-15,2.8395,-0.00611360115476961,-72.7489830917102
-15,2.84,-0.00611466624598874,-72.7618521973103
-15,2.8405,-0.00611573149542298,-72.7747213299732
-15,2.841,-0.0061167969031023,-72.7875904896995
-15,2.8415,-0.00611786246906536,-72.8004596764898
-15,2.842,-0.00611892819334116,-72.8133288903445
-15,2.8425,-0.00611999407595968,-72.8261981312642
-15,2.843,-0.00612106011695572,-72.8390673992494
-15,2.8435,-0.00612212631636311,-72.8519366943006
-15,2.844,-0.00612319267421279,-72.8648060164184
-15,2.8445,-0.00612425919053667,-72.8776753656031
-15,2.845,-0.00612532586536953,-72.8905447418555
-15,2.8455,-0.00612639269874136,-72.9034141451758
-15,2.846,-0.00612745969068793,-72.9162835755647
-15,2.8465,-0.00612852684123919,-72.9291530330226
-15,2.847,-0.00612959415042899,-72.9420225175501
-15,2.8475,-0.00613066161828731,-72.9548920291477
-15,2.848,-0.00613172924484989,-72.9677615678158
-15,2.8485,-0.0061327970301448,-72.980631133555
-15,2.849,-0.00613386497420972,-72.9935007263657
-15,2.8495,-0.00613493307707269,-73.0063703462483
-15,2.85,-0.00613600133877141,-73.0192399932036
-15,2.8505,-0.00613706975933296,-73.0321096672318
-15,2.851,-0.00613813833878925,-73.0449793683335
-15,2.8515,-0.00613920707717892,-73.0578490965091
-15,2.852,-0.00614027597452907,-73.0707188517593
-15,2.8525,-0.00614134503087352,-73.0835886340843
-15,2.853,-0.00614241424624321,-73.0964584434847
-15,2.8535,-0.00614348362067199,-73.109328279961
-15,2.854,-0.00614455315419077,-73.1221981435137
-15,2.8545,-0.00614562284683534,-73.1350680341432
-15,2.855,-0.00614669269863374,-73.14793795185
-15,2.8555,-0.00614776270962172,-73.1608078966345
-15,2.856,-0.00614883287982927,-73.1736778684972
-15,2.8565,-0.00614990320928731,-73.1865478674386
-15,2.857,-0.00615097369803163,-73.1994178934592
-15,2.8575,-0.00615204434609025,-73.2122879465593
-15,2.858,-0.00615311515350185,-73.2251580267395
-15,2.8585,-0.00615418612029253,-73.2380281340002
-15,2.859,-0.00615525724649613,-73.2508982683419
-15,2.8595,-0.00615632853214648,-73.263768429765
-15,2.86,-0.00615739997727356,-73.2766386182699
-15,2.8605,-0.00615847158191313,-73.2895088338572
-15,2.861,-0.00615954334608937,-73.3023790765272
-15,2.8615,-0.00616061526984288,-73.3152493462803
-15,2.862,-0.00616168735320363,-73.3281196431172
-15,2.8625,-0.00616275959619967,-73.340989967038
-15,2.863,-0.00616383199886965,-73.3538603180434
-15,2.8635,-0.00616490456123969,-73.3667306961338
-15,2.864,-0.00616597728334555,-73.3796011013095
-15,2.8645,-0.00616705016521528,-73.392471533571
-15,2.865,-0.00616812320688657,-73.4053419929187
-15,2.8655,-0.00616919640838553,-73.4182124793531
-15,2.866,-0.00617026976974794,-73.4310829928746
-15,2.8665,-0.00617134329100377,-73.4439535334835
-15,2.867,-0.00617241697218781,-73.4568241011804
-15,2.8675,-0.00617349081333004,-73.4696946959657
-15,2.868,-0.00617456481446237,-73.4825653178397
-15,2.8685,-0.00617563897561862,-73.4954359668028
-15,2.869,-0.00617671329682685,-73.5083066428556
-15,2.8695,-0.00617778777812089,-73.5211773459984
-15,2.87,-0.00617886241953555,-73.5340480762315
-15,2.8705,-0.00617993722109789,-73.5469188335555
-15,2.871,-0.00618101218284368,-73.5597896179707
-15,2.8715,-0.0061820873048058,-73.5726604294774
-15,2.872,-0.00618316258700843,-73.5855312680763
-15,2.8725,-0.00618423802949119,-73.5984021337675
-15,2.873,-0.00618531363228406,-73.6112730265515
-15,2.8735,-0.00618638939541701,-73.6241439464287
-15,2.874,-0.00618746531892196,-73.6370148933996
-15,2.8745,-0.00618854140283273,-73.6498858674644
-15,2.875,-0.00618961764718026,-73.6627568686235
-15,2.8755,-0.00619069405199743,-73.6756278968775
-15,2.876,-0.00619177061731324,-73.6884989522266
-15,2.8765,-0.00619284734316249,-73.7013700346712
-15,2.877,-0.00619392422957227,-73.7142411442117
-15,2.8775,-0.00619500127658124,-73.7271122808485
-15,2.878,-0.00619607848421454,-73.739983444582
-15,2.8785,-0.00619715585250891,-73.7528546354125
-15,2.879,-0.00619823338149239,-73.7657258533404
-15,2.8795,-0.00619931107119978,-73.7785970983661
-15,2.88,-0.00620038892166009,-73.7914683704899
-15,2.8805,-0.00620146693290523,-73.8043396697122
-15,2.881,-0.0062025451049671,-73.8172109960335
-15,2.8815,-0.0062036234378805,-73.8300823494539
-15,2.882,-0.00620470193167445,-73.842953729974
-15,2.8825,-0.00620578058638084,-73.855825137594
-15,2.883,-0.00620685940202966,-73.8686965723143
-15,2.8835,-0.00620793837865281,-73.8815680341353
-15,2.884,-0.00620901751628605,-73.8944395230573
-15,2.8845,-0.00621009681495551,-73.9073110390806
-15,2.885,-0.00621117627469887,-73.9201825822057
-15,2.8855,-0.00621225589554032,-73.9330541524329
-15,2.886,-0.00621333567751563,-73.9459257497624
-15,2.8865,-0.0062144156206567,-73.9587973741947
-15,2.887,-0.00621549572499448,-73.9716690257301
-15,2.8875,-0.00621657599055894,-73.9845407043689
-15,2.888,-0.0062176564173868,-73.9974124101115
-15,2.8885,-0.00621873700550227,-74.0102841429581
-15,2.889,-0.00621981775494109,-74.0231559029092
-15,2.8895,-0.00622089866573422,-74.0360276899651
-15,2.89,-0.00622197973791066,-74.048899504126
-15,2.8905,-0.00622306097150811,-74.0617713453924
-15,2.891,-0.00622414236654979,-74.0746432137644
-15,2.8915,-0.00622522392307436,-74.0875151092426
-15,2.892,-0.0062263056411118,-74.1003870318271
-15,2.8925,-0.00622738752068629,-74.1132589815183
-15,2.893,-0.00622846956184132,-74.1261309583165
-15,2.8935,-0.00622955176459528,-74.1390029622221
-15,2.894,-0.00623063412899167,-74.1518749932353
-15,2.8945,-0.00623171665505369,-74.1647470513564
-15,2.895,-0.0062327993428152,-74.1776191365858
-15,2.8955,-0.00623388219230809,-74.1904912489238
-15,2.896,-0.00623496520356523,-74.2033633883706
-15,2.8965,-0.00623604837661468,-74.2162355549266
-15,2.897,-0.0062371317114893,-74.229107748592
-15,2.8975,-0.00623821520821906,-74.2419799693672
-15,2.898,-0.00623929886683975,-74.2548522172525
-15,2.8985,-0.00624038268737456,-74.2677244922481
-15,2.899,-0.00624146666986411,-74.2805967943545
-15,2.8995,-0.00624255081433546,-74.2934691235717
-15,2.9,-0.00624363512081667,-74.3063414799001
-12,2.7,-0.00779972010165086,-88.6597337732878
-12,2.7005,-0.00780111446373291,-88.6762320394802
-12,2.701,-0.00780250898449762,-88.6927303401993
-12,2.7015,-0.00780390366395664,-88.709228675442
