Freq [GHz],"dB(S(1,1)) []","ang_deg(S(1,1)) [deg]"
2,-0.006087491,-43.9153886
2.0015,-0.006095973,-43.94981709
2.003,-0.006104471,-43.98425109
2.0045,-0.006112986,-44.01869063
2.006,-0.006121517,-44.05313573
2.0075,-0.006130064,-44.0875864
2.009,-0.006138628,-44.12204268
2.0105,-0.006147209,-44.15650459
2.012,-0.006155805,-44.19097215
2.0135,-0.006164419,-44.22544538
2.015,-0.006173049,-44.2599243
2.0165,-0.006181696,-44.29440894
2.018,-0.006190359,-44.32889933
2.0195,-0.006199039,-44.36339548
2.021,-0.006207736,-44.39789742
2.0225,-0.00621645,-44.43240517
2.024,-0.00622518,-44.46691876
2.0255,-0.006233927,-44.50143821
2.027,-0.006242691,-44.53596355
2.0285,-0.006251472,-44.5704948
2.03,-0.00626027,-44.60503199
2.0315,-0.006269085,-44.63957513
2.033,-0.006277916,-44.67412427
2.0345,-0.006286765,-44.70867941
2.036,-0.006295631,-44.74324059
2.0375,-0.006304514,-44.77780784
2.039,-0.006313414,-44.81238117
2.0405,-0.006322332,-44.84696062
2.042,-0.006331266,-44.88154621
2.0435,-0.006340218,-44.91613797
2.045,-0.006349187,-44.95073592
2.0465,-0.006358174,-44.98534009
2.048,-0.006367177,-45.01995052
2.0495,-0.006376198,-45.05456721
2.051,-0.006385237,-45.08919022
2.0525,-0.006394293,-45.12381955
2.054,-0.006403367,-45.15845524
2.0555,-0.006412458,-45.19309732
2.057,-0.006421566,-45.22774582
2.0585,-0.006430693,-45.26240075
2.06,-0.006439837,-45.29706217
2.0615,-0.006448998,-45.33173008
2.063,-0.006458178,-45.36640453
2.0645,-0.006467375,-45.40108553
2.066,-0.00647659,-45.43577313
2.0675,-0.006485823,-45.47046734
2.069,-0.006495073,-45.50516821
2.0705,-0.006504342,-45.53987576
2.072,-0.006513628,-45.57459002
2.0735,-0.006522933,-45.60931102
2.075,-0.006532255,-45.64403879
2.0765,-0.006541596,-45.67877337
2.078,-0.006550955,-45.71351478
2.0795,-0.006560332,-45.74826306
2.081,-0.006569727,-45.78301824
2.0825,-0.00657914,-45.81778035
2.084,-0.006588572,-45.85254943
2.0855,-0.006598022,-45.8873255
2.087,-0.00660749,-45.92210861
2.0885,-0.006616977,-45.95689877
2.09,-0.006626482,-45.99169604
2.0915,-0.006636006,-46.02650043
2.093,-0.006645548,-46.06131199
2.0945,-0.006655109,-46.09613075
2.096,-0.006664689,-46.13095674
2.0975,-0.006674287,-46.16579001
2.099,-0.006683903,-46.20063057
2.1005,-0.006693539,-46.23547848
2.102,-0.006703193,-46.27033376
2.1035,-0.006712866,-46.30519645
2.105,-0.006722558,-46.34006659
2.1065,-0.006732269,-46.37494421
2.108,-0.006741999,-46.40982936
2.1095,-0.006751748,-46.44472206
2.111,-0.006761516,-46.47962236
2.1125,-0.006771303,-46.51453029
2.114,-0.006781109,-46.54944589
2.1155,-0.006790934,-46.58436921
2.117,-0.006800779,-46.61930027
2.1185,-0.006810643,-46.65423912
2.12,-0.006820526,-46.6891858
2.1215,-0.006830429,-46.72414035
2.123,-0.006840351,-46.7591028
2.1245,-0.006850292,-46.79407321
2.126,-0.006860253,-46.8290516
2.1275,-0.006870233,-46.86403802
2.129,-0.006880234,-46.89903251
2.1305,-0.006890253,-46.93403511
2.132,-0.006900293,-46.96904587
2.1335,-0.006910352,-47.00406483
2.135,-0.006920431,-47.03909202
2.1365,-0.00693053,-47.07412751
2.138,-0.006940649,-47.10917131
2.1395,-0.006950787,-47.14422349
2.141,-0.006960946,-47.17928409
2.1425,-0.006971125,-47.21435314
2.144,-0.006981324,-47.2494307
2.1455,-0.006991543,-47.28451681
2.147,-0.007001782,-47.31961152
2.1485,-0.007012041,-47.35471487
2.15,-0.007022321,-47.38982691
2.1515,-0.007032621,-47.42494768
2.153,-0.007042942,-47.46007724
2.1545,-0.007053283,-47.49521564
2.156,-0.007063644,-47.53036291
2.1575,-0.007074027,-47.56551911
2.159,-0.007084429,-47.60068429
2.1605,-0.007094853,-47.6358585
2.162,-0.007105297,-47.67104179
2.1635,-0.007115762,-47.7062342
2.165,-0.007126248,-47.7414358
2.1665,-0.007136754,-47.77664662
2.168,-0.007147282,-47.81186673
2.1695,-0.007157831,-47.84709618
2.171,-0.0071684,-47.88233501
2.1725,-0.007178991,-47.91758328
2.174,-0.007189603,-47.95284105
2.1755,-0.007200236,-47.98810837
2.177,-0.007210891,-48.02338529
2.1785,-0.007221567,-48.05867188
2.18,-0.007232264,-48.09396817
2.1815,-0.007242983,-48.12927424
2.183,-0.007253724,-48.16459014
2.1845,-0.007264486,-48.19991592
2.186,-0.007275269,-48.23525165
2.1875,-0.007286075,-48.27059738
2.189,-0.007296902,-48.30595317
2.1905,-0.007307751,-48.34131908
2.192,-0.007318622,-48.37669517
2.1935,-0.007329515,-48.4120815
2.195,-0.00734043,-48.44747814
2.1965,-0.007351367,-48.48288514
2.198,-0.007362326,-48.51830256
2.1995,-0.007373307,-48.55373047
2.201,-0.007384311,-48.58916894
2.2025,-0.007395337,-48.62461802
2.204,-0.007406386,-48.66007779
2.2055,-0.007417457,-48.6955483
2.207,-0.00742855,-48.73102963
2.2085,-0.007439667,-48.76652183
2.21,-0.007450806,-48.80202498
2.2115,-0.007461967,-48.83753915
2.213,-0.007473152,-48.8730644
2.2145,-0.00748436,-48.9086008
2.216,-0.00749559,-48.94414843
2.2175,-0.007506844,-48.97970735
2.219,-0.00751812,-49.01527763
2.2205,-0.00752942,-49.05085935
2.222,-0.007540743,-49.08645258
2.2235,-0.00755209,-49.12205739
2.225,-0.00756346,-49.15767386
2.2265,-0.007574853,-49.19330206
2.228,-0.00758627,-49.22894207
2.2295,-0.007597711,-49.26459396
2.231,-0.007609175,-49.30025781
2.2325,-0.007620664,-49.33593371
2.234,-0.007632176,-49.37162171
2.2355,-0.007643712,-49.40732192
2.237,-0.007655272,-49.4430344
2.2385,-0.007666856,-49.47875925
2.24,-0.007678465,-49.51449653
2.2415,-0.007690097,-49.55024633
2.243,-0.007701755,-49.58600875
2.2445,-0.007713436,-49.62178385
2.246,-0.007725142,-49.65757173
2.2475,-0.007736873,-49.69337248
2.249,-0.007748629,-49.72918617
2.2505,-0.007760409,-49.7650129
2.252,-0.007772214,-49.80085277
2.2535,-0.007784044,-49.83670584
2.255,-0.007795899,-49.87257223
2.2565,-0.00780778,-49.90845202
2.258,-0.007819685,-49.94434529
2.2595,-0.007831616,-49.98025216
2.261,-0.007843573,-50.01617271
2.2625,-0.007855555,-50.05210703
2.264,-0.007867562,-50.08805523
2.2655,-0.007879595,-50.1240174
2.267,-0.007891654,-50.15999364
2.2685,-0.007903739,-50.19598405
2.27,-0.00791585,-50.23198873
2.2715,-0.007927987,-50.26800778
2.273,-0.00794015,-50.30404132
2.2745,-0.00795234,-50.34008943
2.276,-0.007964556,-50.37615223
2.2775,-0.007976798,-50.41222982
2.279,-0.007989067,-50.44832232
2.2805,-0.008001363,-50.48442982
2.282,-0.008013686,-50.52055245
2.2835,-0.008026035,-50.5566903
2.285,-0.008038412,-50.5928435
2.2865,-0.008050816,-50.62901216
2.288,-0.008063247,-50.66519639
2.2895,-0.008075705,-50.70139631
2.291,-0.008088191,-50.73761204
2.2925,-0.008100704,-50.7738437
2.294,-0.008113245,-50.8100914
2.2955,-0.008125814,-50.84635527
2.297,-0.008138411,-50.88263544
2.2985,-0.008151036,-50.91893202
2.3,-0.008163689,-50.95524514
2.3015,-0.00817637,-50.99157493
2.303,-0.00818908,-51.02792153
2.3045,-0.008201819,-51.06428505
2.306,-0.008214586,-51.10066563
2.3075,-0.008227382,-51.13706341
2.309,-0.008240207,-51.17347852
2.3105,-0.00825306,-51.20991109
2.312,-0.008265943,-51.24636127
2.3135,-0.008278856,-51.2828292
2.315,-0.008291798,-51.31931501
2.3165,-0.008304769,-51.35581885
2.318,-0.00831777,-51.39234086
2.3195,-0.008330801,-51.4288812
2.321,-0.008343863,-51.46544
2.3225,-0.008356954,-51.50201743
2.324,-0.008370075,-51.53861362
2.3255,-0.008383227,-51.57522874
2.327,-0.00839641,-51.61186294
2.3285,-0.008409623,-51.64851638
2.33,-0.008422867,-51.68518921
2.3315,-0.008436143,-51.72188161
2.333,-0.008449449,-51.75859372
2.3345,-0.008462787,-51.79532573
2.336,-0.008476156,-51.83207778
2.3375,-0.008489557,-51.86885007
2.339,-0.00850299,-51.90564275
2.3405,-0.008516455,-51.94245599
2.342,-0.008529952,-51.97928999
2.3435,-0.008543481,-52.0161449
2.345,-0.008557043,-52.05302092
2.3465,-0.008570637,-52.08991823
2.348,-0.008584265,-52.12683701
2.3495,-0.008597925,-52.16377745
2.351,-0.008611619,-52.20073973
2.3525,-0.008625346,-52.23772406
2.354,-0.008639106,-52.27473062
2.3555,-0.008652901,-52.31175961
2.357,-0.008666729,-52.34881123
2.3585,-0.008680591,-52.38588569
2.36,-0.008694488,-52.42298319
2.3615,-0.00870842,-52.46010393
2.363,-0.008722386,-52.49724812
2.3645,-0.008736387,-52.53441599
2.366,-0.008750423,-52.57160774
2.3675,-0.008764494,-52.60882359
2.369,-0.008778601,-52.64606377
2.3705,-0.008792744,-52.6833285
2.372,-0.008806923,-52.720618
2.3735,-0.008821138,-52.75793252
2.375,-0.00883539,-52.79527227
2.3765,-0.008849678,-52.8326375
2.378,-0.008864003,-52.87002844
2.3795,-0.008878365,-52.90744535
2.381,-0.008892765,-52.94488846
2.3825,-0.008907202,-52.98235803
2.384,-0.008921677,-53.01985431
2.3855,-0.00893619,-53.05737756
2.387,-0.008950741,-53.09492803
2.3885,-0.008965331,-53.132506
2.39,-0.00897996,-53.17011173
2.3915,-0.008994628,-53.20774548
2.393,-0.009009335,-53.24540754
2.3945,-0.009024082,-53.28309819
2.396,-0.009038869,-53.3208177
2.3975,-0.009053696,-53.35856637
2.399,-0.009068564,-53.39634449
2.4005,-0.009083472,-53.43415234
2.402,-0.009098422,-53.47199024
2.4035,-0.009113412,-53.50985848
2.405,-0.009128445,-53.54775738
2.4065,-0.009143519,-53.58568724
2.408,-0.009158636,-53.62364838
2.4095,-0.009173795,-53.66164113
2.411,-0.009188997,-53.69966581
2.4125,-0.009204242,-53.73772275
2.414,-0.009219531,-53.77581229
2.4155,-0.009234864,-53.81393477
2.417,-0.00925024,-53.85209054
2.4185,-0.009265662,-53.89027995
2.42,-0.009281128,-53.92850335
2.4215,-0.00929664,-53.96676111
2.423,-0.009312197,-54.00505359
2.4245,-0.0093278,-54.04338118
2.426,-0.00934345,-54.08174424
2.4275,-0.009359146,-54.12014316
2.429,-0.00937489,-54.15857834
2.4305,-0.009390681,-54.19705016
2.432,-0.00940652,-54.23555904
2.4335,-0.009422407,-54.27410538
2.435,-0.009438343,-54.3126896
2.4365,-0.009454328,-54.35131211
2.438,-0.009470363,-54.38997336
2.4395,-0.009486448,-54.42867376
2.441,-0.009502583,-54.46741377
2.4425,-0.00951877,-54.50619384
2.444,-0.009535008,-54.54501442
2.4455,-0.009551297,-54.58387597
2.447,-0.009567639,-54.62277897
2.4485,-0.009584034,-54.66172389
2.45,-0.009600482,-54.70071123
2.4515,-0.009616984,-54.73974147
2.453,-0.00963354,-54.77881512
2.4545,-0.009650151,-54.81793269
2.456,-0.009666818,-54.8570947
2.4575,-0.00968354,-54.89630168
2.459,-0.009700319,-54.93555417
2.4605,-0.009717155,-54.9748527
2.462,-0.009734048,-55.01419784
2.4635,-0.009751,-55.05359015
2.465,-0.009768011,-55.09303021
2.4665,-0.009785081,-55.13251859
2.468,-0.009802211,-55.17205589
2.4695,-0.009819401,-55.21164272
2.471,-0.009836653,-55.25127969
2.4725,-0.009853967,-55.29096742
2.474,-0.009871343,-55.33070655
2.4755,-0.009888783,-55.37049773
2.477,-0.009906287,-55.41034161
2.4785,-0.009923855,-55.45023887
2.48,-0.009941489,-55.49019019
2.4815,-0.009959189,-55.53019626
2.483,-0.009976956,-55.57025778
2.4845,-0.009994791,-55.61037548
2.486,-0.010012694,-55.65055008
2.4875,-0.010030666,-55.69078234
2.489,-0.010048708,-55.73107301
2.4905,-0.010066822,-55.77142287
2.492,-0.010085007,-55.81183269
2.4935,-0.010103264,-55.85230329
2.495,-0.010121596,-55.89283547
2.4965,-0.010140001,-55.93343007
2.498,-0.010158482,-55.97408794
2.4995,-0.010177039,-56.01480994
2.501,-0.010195674,-56.05559694
2.5025,-0.010214386,-56.09644984
2.504,-0.010233178,-56.13736956
2.5055,-0.010252051,-56.17835703
2.507,-0.010271004,-56.21941319
2.5085,-0.01029004,-56.26053901
2.51,-0.01030916,-56.30173547
2.5115,-0.010328364,-56.34300359
2.513,-0.010347654,-56.38434437
2.5145,-0.010367031,-56.42575888
2.516,-0.010386496,-56.46724817
2.5175,-0.010406051,-56.50881333
2.519,-0.010425696,-56.55045546
2.5205,-0.010445433,-56.59217571
2.522,-0.010465264,-56.63397521
2.5235,-0.010485189,-56.67585516
2.525,-0.01050521,-56.71781674
2.5265,-0.010525329,-56.75986118
2.528,-0.010545547,-56.80198974
2.5295,-0.010565865,-56.84420369
2.531,-0.010586285,-56.88650433
2.5325,-0.010606808,-56.928893
2.534,-0.010627437,-56.97137105
2.5355,-0.010648172,-57.01393987
2.537,-0.010669016,-57.05660088
2.5385,-0.01068997,-57.09935553
2.54,-0.010711035,-57.14220528
2.5415,-0.010732215,-57.18515166
2.543,-0.01075351,-57.22819621
2.5445,-0.010774923,-57.27134051
2.546,-0.010796455,-57.31458615
2.5475,-0.010818108,-57.35793481
2.549,-0.010839885,-57.40138815
2.5505,-0.010861788,-57.4449479
2.552,-0.010883818,-57.48861582
2.5535,-0.010905979,-57.53239372
2.555,-0.010928271,-57.57628343
2.5565,-0.010950699,-57.62028683
2.558,-0.010973263,-57.66440586
2.5595,-0.010995967,-57.70864249
2.561,-0.011018814,-57.75299873
2.5625,-0.011041805,-57.79747665
2.564,-0.011064943,-57.84207836
2.5655,-0.011088231,-57.88680603
2.567,-0.011111673,-57.93166187
2.5685,-0.011135271,-57.97664816
2.57,-0.011159027,-58.02176721
2.5715,-0.011182946,-58.0670214
2.573,-0.011207029,-58.11241318
2.5745,-0.011231282,-58.15794504
2.576,-0.011255706,-58.20361954
2.5775,-0.011280305,-58.24943931
2.579,-0.011305084,-58.29540703
2.5805,-0.011330045,-58.34152546
2.582,-0.011355193,-58.38779743
2.5835,-0.011380531,-58.43422585
2.585,-0.011406063,-58.48081367
2.5865,-0.011431794,-58.52756396
2.588,-0.011457728,-58.57447985
2.5895,-0.011483869,-58.62156454
2.591,-0.011510222,-58.66882134
2.5925,-0.011536791,-58.71625363
2.594,-0.011563582,-58.76386488
2.5955,-0.011590599,-58.81165867
2.597,-0.011617848,-58.85963866
2.5985,-0.011645334,-58.90780861
2.6,-0.011673062,-58.9561724
2.6015,-0.011701038,-59.004734
2.603,-0.011729268,-59.0534975
2.6045,-0.011757758,-59.1024671
2.606,-0.011786514,-59.15164712
2.6075,-0.011815544,-59.20104201
2.609,-0.011844853,-59.25065633
2.6105,-0.011874448,-59.30049479
2.612,-0.011904338,-59.35056222
2.6135,-0.011934528,-59.40086362
2.615,-0.011965028,-59.4514041
2.6165,-0.011995844,-59.50218894
2.618,-0.012026986,-59.5532236
2.6195,-0.012058462,-59.60451366
2.621,-0.01209028,-59.6560649
2.6225,-0.01212245,-59.70788328
2.624,-0.012154982,-59.75997492
2.6255,-0.012187885,-59.81234615
2.627,-0.01222117,-59.86500349
2.6285,-0.012254847,-59.91795367
2.63,-0.012288928,-59.97120364
2.6315,-0.012323424,-60.02476056
2.633,-0.012358348,-60.07863183
2.6345,-0.01239371,-60.13282509
2.636,-0.012429525,-60.18734824
2.6375,-0.012465806,-60.24220941
2.639,-0.012502567,-60.29741704
2.6405,-0.012539823,-60.35297985
2.642,-0.012577588,-60.40890682
2.6435,-0.012615879,-60.46520729
2.645,-0.012654712,-60.52189089
2.6465,-0.012694104,-60.57896759
2.648,-0.012734073,-60.63644772
2.6495,-0.012774638,-60.69434197
2.651,-0.012815819,-60.75266142
2.6525,-0.012857634,-60.81141755
2.654,-0.012900107,-60.87062224
2.6555,-0.012943259,-60.93028783
2.657,-0.012987112,-60.99042713
2.6585,-0.013031693,-61.05105339
2.66,-0.013077025,-61.11218039
2.6615,-0.013123135,-61.17382245
2.663,-0.013170051,-61.2359944
2.6645,-0.013217803,-61.2987117
2.666,-0.01326642,-61.36199037
2.6675,-0.013315935,-61.4258471
2.669,-0.013366381,-61.49029924
2.6705,-0.013417793,-61.55536485
2.672,-0.013470209,-61.62106272
2.6735,-0.013523666,-61.68741241
2.675,-0.013578207,-61.75443434
2.6765,-0.013633873,-61.82214974
2.678,-0.013690709,-61.89058078
2.6795,-0.013748764,-61.95975059
2.681,-0.013808087,-62.0296833
2.6825,-0.013868731,-62.10040409
2.684,-0.013930751,-62.1719393
2.6855,-0.013994206,-62.24431644
2.687,-0.014059158,-62.31756426
2.6885,-0.014125672,-62.39171287
2.69,-0.014193818,-62.46679377
2.6915,-0.014263668,-62.54283995
2.693,-0.0143353,-62.61988598
2.6945,-0.014408796,-62.69796811
2.696,-0.014484242,-62.77712436
2.6975,-0.014561731,-62.85739464
2.699,-0.014641361,-62.93882087
2.7005,-0.014723235,-63.02144708
2.702,-0.014807465,-63.10531962
2.7035,-0.014894166,-63.1904872
2.705,-0.014983466,-63.27700115
2.7065,-0.015075497,-63.36491553
2.708,-0.015170401,-63.45428736
2.7095,-0.01526833,-63.54517679
2.711,-0.015369447,-63.6376473
2.7125,-0.015473925,-63.73176603
2.714,-0.01558195,-63.82760391
2.7155,-0.015693721,-63.92523606
2.717,-0.015809453,-64.02474201
2.7185,-0.015929374,-64.12620608
2.72,-0.016053731,-64.22971773
2.7215,-0.01618279,-64.33537195
2.723,-0.016316836,-64.4432697
2.7245,-0.016456179,-64.5535184
2.726,-0.016601151,-64.66623243
2.7275,-0.016752112,-64.78153373
2.729,-0.016909454,-64.8995524
2.7305,-0.017073598,-65.02042743
2.732,-0.017245005,-65.14430744
2.7335,-0.017424172,-65.27135157
2.735,-0.017611645,-65.40173037
2.7365,-0.017808015,-65.53562689
2.738,-0.018013931,-65.67323781
2.7395,-0.018230099,-65.81477476
2.741,-0.018457297,-65.96046577
2.7425,-0.018696377,-66.11055683
2.744,-0.018948274,-66.26531378
2.7455,-0.019214023,-66.42502428
2.747,-0.019494762,-66.59000013
2.7485,-0.019791753,-66.76057983
2.75,-0.020106393,-66.93713154
2.7515,-0.020440236,-67.12005633
2.753,-0.020795011,-67.309792
2.7545,-0.02117265,-67.50681735
2.756,-0.021575315,-67.71165708
2.7575,-0.022005432,-67.92488743
2.759,-0.022465729,-68.14714266
2.7605,-0.022959289,-68.37912252
2.762,-0.023489598,-68.62160091
2.7635,-0.024060619,-68.87543596
2.765,-0.024676866,-69.1415818
2.7665,-0.025343501,-69.42110229
2.768,-0.026066451,-69.71518729
2.7695,-0.026852545,-70.02517181
2.771,-0.027709689,-70.35255879
2.7725,-0.028647071,-70.69904628
2.774,-0.029675424,-71.06656007
2.7755,-0.030807348,-71.45729312
2.777,-0.032057709,-71.87375334
2.7785,-0.033444157,-72.3188221
2.78,-0.034987763,-72.79582609
2.7815,-0.036713857,-73.30862654
2.783,-0.038653096,-73.86173051
2.7845,-0.040842872,-74.46043117
2.786,-0.043329158,-75.11098606
2.7875,-0.046168981,-75.82084585
2.789,-0.04943376,-76.59895106
2.7905,-0.053213875,-77.45612121
2.792,-0.057625007,-78.40557172
2.7935,-0.062817082,-79.46360957
2.795,-0.068987083,-80.65058372
2.7965,-0.07639777,-81.9922045
2.798,-0.085405553,-83.52140813
2.7995,-0.096502941,-85.28104363
2.801,-0.11038473,-87.32782934
2.8025,-0.128053945,-89.73831922
2.804,-0.150996173,-92.61813825
2.8055,-0.181474933,-96.11669123
2.807,-0.2230467,-100.4513102
2.8085,-0.281480636,-105.9481329
2.81,-0.366414158,-113.1131954
2.8115,-0.4942117,-122.7575792
2.813,-0.691884514,-136.2099259
2.8145,-0.996198033,-155.6064317
2.816,-1.414746879,176.1306335
2.8175,-1.780200501,137.4432903
2.819,-1.739035587,93.85474608
2.8205,-1.333813581,56.28958683
2.822,-0.92122846,29.20375915
2.8235,-0.632517167,10.63225885
2.825,-0.447749915,-2.292442041
2.8265,-0.329163268,-11.5981241
2.828,-0.250742922,-18.53899725
2.8295,-0.197031542,-23.8820388
2.831,-0.158995303,-28.10754865
2.8325,-0.131245865,-31.52632561
2.834,-0.110468558,-34.34626826
2.8355,-0.094557149,-36.71078652
2.837,-0.082131347,-38.72157531
2.8385,-0.072260666,-40.45253774
2.84,-0.064301635,-41.95855762
2.8415,-0.057798957,-43.28118482
2.843,-0.052423798,-44.45241635
2.8445,-0.047934239,-45.49727082
2.846,-0.044149322,-46.43557919
2.8475,-0.040931643,-47.28325465
2.849,-0.038175442,-48.0532091
2.8505,-0.035798299,-48.75602524
2.852,-0.033735257,-49.40045666
2.8535,-0.031934586,-49.99380498
2.855,-0.0303547,-50.54220773
2.8565,-0.028961873,-51.05086061
2.858,-0.027728527,-51.52419086
2.8595,-0.026631949,-51.96599386
2.861,-0.025653295,-52.37954159
2.8625,-0.024776834,-52.76766966
2.864,-0.023989351,-53.13284751
2.8655,-0.023279683,-53.4772355
2.867,-0.02263835,-53.80273175
2.8685,-0.022057261,-54.11101061
2.87,-0.021529477,-54.40355466
2.8715,-0.021049023,-54.68168138
2.873,-0.020610729,-54.94656539
2.8745,-0.020210107,-55.19925737
2.876,-0.019843246,-55.44069986
2.8775,-0.019506725,-55.67174088
2.879,-0.01919754,-55.89314545
2.8805,-0.018913047,-56.10560545
2.882,-0.018650913,-56.30974821
2.8835,-0.018409069,-56.50614381
2.885,-0.018185678,-56.69531148
2.8865,-0.017979106,-56.87772511
2.888,-0.017787893,-57.05381813
2.8895,-0.017610731,-57.22398771
2.891,-0.017446451,-57.38859847
2.8925,-0.017293997,-57.54798574
2.894,-0.017152421,-57.70245847
2.8955,-0.017020866,-57.85230172
2.897,-0.016898558,-57.99777897
2.8985,-0.016784794,-58.13913411
2.9,-0.016678938,-58.27659321
2.9015,-0.016580408,-58.41036613
2.903,-0.016488678,-58.54064796
2.9045,-0.016403265,-58.66762026
2.906,-0.01632373,-58.79145226
2.9075,-0.016249668,-58.91230182
2.909,-0.016180711,-59.03031645
2.9105,-0.01611652,-59.14563409
2.912,-0.016056783,-59.25838388
2.9135,-0.016001212,-59.36868687
2.915,-0.015949545,-59.47665663
2.9165,-0.015901536,-59.5823998
2.918,-0.015856961,-59.68601666
2.9195,-0.01581561,-59.78760155
2.921,-0.015777292,-59.88724333
2.9225,-0.015741827,-59.98502574
2.924,-0.01570905,-60.08102781
2.9255,-0.015678805,-60.17532415
2.927,-0.01565095,-60.26798528
