Freq [GHz],"dB(S(1,1)) []","ang_deg(S(1,1)) [deg]"
2,-0.006539238,-43.19216009
2.0015,-0.006549347,-43.22545217
2.003,-0.006559476,-43.25874649
2.0045,-0.006569624,-43.29204306
2.006,-0.006579792,-43.32534187
2.0075,-0.006589979,-43.35864293
2.009,-0.006600187,-43.39194625
2.0105,-0.006610414,-43.42525182
2.012,-0.006620661,-43.45855966
2.0135,-0.006630928,-43.49186976
2.015,-0.006641214,-43.52518213
2.0165,-0.006651521,-43.55849678
2.018,-0.006661847,-43.5918137
2.0195,-0.006672194,-43.6251329
2.021,-0.006682561,-43.65845438
2.0225,-0.006692947,-43.69177815
2.024,-0.006703354,-43.72510421
2.0255,-0.006713781,-43.75843256
2.027,-0.006724227,-43.79176321
2.0285,-0.006734695,-43.82509616
2.03,-0.006745182,-43.85843142
2.0315,-0.006755689,-43.89176899
2.033,-0.006766217,-43.92510886
2.0345,-0.006776765,-43.95845106
2.036,-0.006787333,-43.99179557
2.0375,-0.006797922,-44.02514241
2.039,-0.006808531,-44.05849158
2.0405,-0.006819161,-44.09184308
2.042,-0.006829811,-44.12519691
2.0435,-0.006840481,-44.15855309
2.045,-0.006851172,-44.1919116
2.0465,-0.006861884,-44.22527247
2.048,-0.006872616,-44.25863568
2.0495,-0.006883369,-44.29200125
2.051,-0.006894142,-44.32536918
2.0525,-0.006904936,-44.35873947
2.054,-0.006915751,-44.39211213
2.0555,-0.006926586,-44.42548716
2.057,-0.006937443,-44.45886456
2.0585,-0.00694832,-44.49224435
2.06,-0.006959218,-44.52562651
2.0615,-0.006970136,-44.55901107
2.063,-0.006981076,-44.59239801
2.0645,-0.006992037,-44.62578735
2.066,-0.007003018,-44.65917909
2.0675,-0.007014021,-44.69257324
2.069,-0.007025044,-44.72596979
2.0705,-0.007036089,-44.75936875
2.072,-0.007047155,-44.79277014
2.0735,-0.007058242,-44.82617394
2.075,-0.00706935,-44.85958017
2.0765,-0.007080479,-44.89298882
2.078,-0.00709163,-44.92639991
2.0795,-0.007102802,-44.95981344
2.081,-0.007113995,-44.99322942
2.0825,-0.007125209,-45.02664784
2.084,-0.007136445,-45.06006871
2.0855,-0.007147702,-45.09349203
2.087,-0.007158981,-45.12691782
2.0885,-0.007170281,-45.16034607
2.09,-0.007181602,-45.19377679
2.0915,-0.007192945,-45.22720999
2.093,-0.00720431,-45.26064566
2.0945,-0.007215696,-45.29408382
2.096,-0.007227104,-45.32752446
2.0975,-0.007238534,-45.3609676
2.099,-0.007249985,-45.39441324
2.1005,-0.007261458,-45.42786137
2.102,-0.007272953,-45.46131202
2.1035,-0.007284469,-45.49476517
2.105,-0.007296008,-45.52822084
2.1065,-0.007307568,-45.56167904
2.108,-0.00731915,-45.59513975
2.1095,-0.007330755,-45.628603
2.111,-0.007342381,-45.66206879
2.1125,-0.007354029,-45.69553711
2.114,-0.007365699,-45.72900799
2.1155,-0.007377391,-45.76248141
2.117,-0.007389105,-45.79595739
2.1185,-0.007400842,-45.82943593
2.12,-0.007412601,-45.86291703
2.1215,-0.007424382,-45.89640071
2.123,-0.007436185,-45.92988696
2.1245,-0.00744801,-45.96337579
2.126,-0.007459858,-45.99686721
2.1275,-0.007471728,-46.03036122
2.129,-0.00748362,-46.06385783
2.1305,-0.007495535,-46.09735704
2.132,-0.007507473,-46.13085886
2.1335,-0.007519433,-46.16436329
2.135,-0.007531415,-46.19787034
2.1365,-0.00754342,-46.23138002
2.138,-0.007555447,-46.26489232
2.1395,-0.007567498,-46.29840726
2.141,-0.007579571,-46.33192484
2.1425,-0.007591666,-46.36544506
2.144,-0.007603784,-46.39896794
2.1455,-0.007615926,-46.43249348
2.147,-0.007628089,-46.46602167
2.1485,-0.007640276,-46.49955254
2.15,-0.007652486,-46.53308608
2.1515,-0.007664718,-46.5666223
2.153,-0.007676974,-46.60016121
2.1545,-0.007689252,-46.63370281
2.156,-0.007701554,-46.66724711
2.1575,-0.007713879,-46.70079411
2.159,-0.007726226,-46.73434382
2.1605,-0.007738597,-46.76789625
2.162,-0.007750991,-46.8014514
2.1635,-0.007763408,-46.83500928
2.165,-0.007775849,-46.86856989
2.1665,-0.007788313,-46.90213325
2.168,-0.0078008,-46.93569935
2.1695,-0.00781331,-46.9692682
2.171,-0.007825844,-47.00283982
2.1725,-0.007838401,-47.0364142
2.174,-0.007850982,-47.06999135
2.1755,-0.007863586,-47.10357128
2.177,-0.007876214,-47.137154
2.1785,-0.007888865,-47.17073951
2.18,-0.00790154,-47.20432781
2.1815,-0.007914239,-47.23791893
2.183,-0.007926961,-47.27151285
2.1845,-0.007939707,-47.3051096
2.186,-0.007952477,-47.33870916
2.1875,-0.007965271,-47.37231157
2.189,-0.007978088,-47.40591681
2.1905,-0.00799093,-47.4395249
2.192,-0.008003795,-47.47313584
2.1935,-0.008016684,-47.50674964
2.195,-0.008029597,-47.54036631
2.1965,-0.008042535,-47.57398585
2.198,-0.008055496,-47.60760828
2.1995,-0.008068481,-47.64123359
2.201,-0.008081491,-47.6748618
2.2025,-0.008094525,-47.70849292
2.204,-0.008107583,-47.74212694
2.2055,-0.008120665,-47.77576389
2.207,-0.008133771,-47.80940376
2.2085,-0.008146902,-47.84304657
2.21,-0.008160058,-47.87669232
2.2115,-0.008173237,-47.91034101
2.213,-0.008186441,-47.94399267
2.2145,-0.00819967,-47.97764729
2.216,-0.008212923,-48.01130488
2.2175,-0.008226201,-48.04496546
2.219,-0.008239503,-48.07862902
2.2205,-0.00825283,-48.11229558
2.222,-0.008266182,-48.14596515
2.2235,-0.008279558,-48.17963773
2.225,-0.00829296,-48.21331333
2.2265,-0.008306385,-48.24699196
2.228,-0.008319836,-48.28067364
2.2295,-0.008333312,-48.31435836
2.231,-0.008346813,-48.34804613
2.2325,-0.008360338,-48.38173697
2.234,-0.008373889,-48.41543088
2.2355,-0.008387465,-48.44912788
2.237,-0.008401065,-48.48282797
2.2385,-0.008414691,-48.51653115
2.24,-0.008428343,-48.55023745
2.2415,-0.008442019,-48.58394687
2.243,-0.00845572,-48.61765941
2.2445,-0.008469447,-48.65137509
2.246,-0.008483199,-48.68509391
2.2475,-0.008496977,-48.71881589
2.249,-0.00851078,-48.75254104
2.2505,-0.008524608,-48.78626936
2.252,-0.008538462,-48.82000086
2.2535,-0.008552342,-48.85373556
2.255,-0.008566247,-48.88747346
2.2565,-0.008580178,-48.92121458
2.258,-0.008594134,-48.95495892
2.2595,-0.008608116,-48.98870649
2.261,-0.008622124,-49.02245731
2.2625,-0.008636158,-49.05621138
2.264,-0.008650217,-49.08996872
2.2655,-0.008664303,-49.12372933
2.267,-0.008678414,-49.15749323
2.2685,-0.008692551,-49.19126042
2.27,-0.008706714,-49.22503093
2.2715,-0.008720904,-49.25880475
2.273,-0.008735119,-49.2925819
2.2745,-0.008749361,-49.32636239
2.276,-0.008763628,-49.36014623
2.2775,-0.008777922,-49.39393343
2.279,-0.008792243,-49.42772401
2.2805,-0.008806589,-49.46151797
2.282,-0.008820962,-49.49531534
2.2835,-0.008835361,-49.52911611
2.285,-0.008849787,-49.5629203
2.2865,-0.00886424,-49.59672792
2.288,-0.008878718,-49.63053899
2.2895,-0.008893224,-49.66435352
2.291,-0.008907756,-49.69817151
2.2925,-0.008922314,-49.73199299
2.294,-0.0089369,-49.76581796
2.2955,-0.008951512,-49.79964644
2.297,-0.008966151,-49.83347843
2.2985,-0.008980817,-49.86731396
2.3,-0.008995509,-49.90115304
2.3015,-0.009010229,-49.93499567
2.303,-0.009024976,-49.96884188
2.3045,-0.009039749,-50.00269167
2.306,-0.00905455,-50.03654506
2.3075,-0.009069378,-50.07040206
2.309,-0.009084233,-50.10426269
2.3105,-0.009099115,-50.13812696
2.312,-0.009114025,-50.17199489
2.3135,-0.009128962,-50.20586648
2.315,-0.009143926,-50.23974176
2.3165,-0.009158918,-50.27362074
2.318,-0.009173937,-50.30750343
2.3195,-0.009188984,-50.34138984
2.321,-0.009204058,-50.37528
2.3225,-0.00921916,-50.40917392
2.324,-0.009234289,-50.44307161
2.3255,-0.009249446,-50.47697308
2.327,-0.009264631,-50.51087837
2.3285,-0.009279844,-50.54478747
2.33,-0.009295084,-50.57870041
2.3315,-0.009310353,-50.6126172
2.333,-0.009325649,-50.64653786
2.3345,-0.009340974,-50.68046241
2.336,-0.009356326,-50.71439086
2.3375,-0.009371707,-50.74832322
2.339,-0.009387115,-50.78225953
2.3405,-0.009402552,-50.81619978
2.342,-0.009418017,-50.85014401
2.3435,-0.009433511,-50.88409223
2.345,-0.009449033,-50.91804445
2.3465,-0.009464583,-50.9520007
2.348,-0.009480162,-50.98596099
2.3495,-0.009495769,-51.01992534
2.351,-0.009511404,-51.05389377
2.3525,-0.009527069,-51.0878663
2.354,-0.009542762,-51.12184295
2.3555,-0.009558484,-51.15582374
2.357,-0.009574234,-51.18980868
2.3585,-0.009590014,-51.2237978
2.36,-0.009605822,-51.25779112
2.3615,-0.009621659,-51.29178865
2.363,-0.009637525,-51.32579043
2.3645,-0.009653421,-51.35979646
2.366,-0.009669345,-51.39380677
2.3675,-0.009685298,-51.42782138
2.369,-0.009701281,-51.46184031
2.3705,-0.009717293,-51.49586359
2.372,-0.009733334,-51.52989124
2.3735,-0.009749405,-51.56392327
2.375,-0.009765505,-51.59795971
2.3765,-0.009781635,-51.63200059
2.378,-0.009797794,-51.66604592
2.3795,-0.009813983,-51.70009574
2.381,-0.009830202,-51.73415006
2.3825,-0.00984645,-51.7682089
2.384,-0.009862728,-51.8022723
2.3855,-0.009879036,-51.83634028
2.387,-0.009895373,-51.87041286
2.3885,-0.009911741,-51.90449006
2.39,-0.009928139,-51.93857192
2.3915,-0.009944567,-51.97265846
2.393,-0.009961025,-52.0067497
2.3945,-0.009977513,-52.04084567
2.396,-0.009994032,-52.0749464
2.3975,-0.01001058,-52.10905191
2.399,-0.01002716,-52.14316224
2.4005,-0.010043769,-52.17727741
2.402,-0.01006041,-52.21139745
2.4035,-0.010077081,-52.24552239
2.405,-0.010093782,-52.27965225
2.4065,-0.010110514,-52.31378707
2.408,-0.010127277,-52.34792688
2.4095,-0.010144071,-52.3820717
2.411,-0.010160896,-52.41622157
2.4125,-0.010177752,-52.45037652
2.414,-0.010194639,-52.48453658
2.4155,-0.010211557,-52.51870178
2.417,-0.010228506,-52.55287215
2.4185,-0.010245486,-52.58704773
2.42,-0.010262498,-52.62122855
2.4215,-0.010279541,-52.65541465
2.423,-0.010296616,-52.68960605
2.4245,-0.010313722,-52.72380279
2.426,-0.01033086,-52.75800491
2.4275,-0.010348029,-52.79221245
2.429,-0.01036523,-52.82642543
2.4305,-0.010382463,-52.8606439
2.432,-0.010399728,-52.89486789
2.4335,-0.010417025,-52.92909745
2.435,-0.010434354,-52.9633326
2.4365,-0.010451716,-52.99757339
2.438,-0.010469109,-53.03181986
2.4395,-0.010486535,-53.06607204
2.441,-0.010503993,-53.10032998
2.4425,-0.010521483,-53.13459372
2.444,-0.010539006,-53.1688633
2.4455,-0.010556562,-53.20313877
2.447,-0.01057415,-53.23742016
2.4485,-0.010591771,-53.27170751
2.45,-0.010609425,-53.30600089
2.4515,-0.010627112,-53.34030032
2.453,-0.010644832,-53.37460585
2.4545,-0.010662585,-53.40891753
2.456,-0.010680371,-53.44323542
2.4575,-0.01069819,-53.47755954
2.459,-0.010716043,-53.51188996
2.4605,-0.010733929,-53.54622673
2.462,-0.010751849,-53.58056988
2.4635,-0.010769802,-53.61491948
2.465,-0.01078779,-53.64927557
2.4665,-0.010805811,-53.68363821
2.468,-0.010823866,-53.71800746
2.4695,-0.010841954,-53.75238335
2.471,-0.010860077,-53.78676596
2.4725,-0.010878235,-53.82115533
2.474,-0.010896426,-53.85555152
2.4755,-0.010914652,-53.88995459
2.477,-0.010932913,-53.9243646
2.4785,-0.010951208,-53.95878161
2.48,-0.010969537,-53.99320567
2.4815,-0.010987902,-54.02763686
2.483,-0.011006301,-54.06207522
2.4845,-0.011024736,-54.09652083
2.486,-0.011043205,-54.13097376
2.4875,-0.01106171,-54.16543405
2.489,-0.01108025,-54.19990179
2.4905,-0.011098826,-54.23437704
2.492,-0.011117437,-54.26885987
2.4935,-0.011136084,-54.30335035
2.495,-0.011154767,-54.33784855
2.4965,-0.011173486,-54.37235454
2.498,-0.01119224,-54.40686841
2.4995,-0.011211031,-54.44139021
2.501,-0.011229858,-54.47592004
2.5025,-0.011248722,-54.51045796
2.504,-0.011267622,-54.54500406
2.5055,-0.011286559,-54.57955841
2.507,-0.011305532,-54.61412111
2.5085,-0.011324543,-54.64869223
2.51,-0.01134359,-54.68327185
2.5115,-0.011362675,-54.71786008
2.513,-0.011381797,-54.75245698
2.5145,-0.011400957,-54.78706266
2.516,-0.011420154,-54.82167721
2.5175,-0.011439389,-54.85630071
2.519,-0.011458662,-54.89093326
2.5205,-0.011477973,-54.92557497
2.522,-0.011497323,-54.96022592
2.5235,-0.01151671,-54.99488623
2.525,-0.011536137,-55.02955598
2.5265,-0.011555602,-55.06423529
2.528,-0.011575105,-55.09892426
2.5295,-0.011594648,-55.133623
2.531,-0.01161423,-55.16833162
2.5325,-0.011633852,-55.20305023
2.534,-0.011653513,-55.23777895
2.5355,-0.011673213,-55.2725179
2.537,-0.011692954,-55.30726719
2.5385,-0.011712734,-55.34202694
2.54,-0.011732555,-55.37679729
2.5415,-0.011752417,-55.41157835
2.543,-0.011772319,-55.44637026
2.5445,-0.011792262,-55.48117314
2.546,-0.011812246,-55.51598714
2.5475,-0.011832271,-55.55081239
2.549,-0.011852338,-55.58564903
2.5505,-0.011872447,-55.6204972
2.552,-0.011892597,-55.65535704
2.5535,-0.01191279,-55.69022872
2.555,-0.011933025,-55.72511238
2.5565,-0.011953302,-55.76000817
2.558,-0.011973623,-55.79491625
2.5595,-0.011993986,-55.82983679
2.561,-0.012014393,-55.86476996
2.5625,-0.012034844,-55.89971591
2.564,-0.012055338,-55.93467483
2.5655,-0.012075876,-55.96964689
2.567,-0.012096459,-56.00463227
2.5685,-0.012117087,-56.03963116
2.57,-0.012137759,-56.07464374
2.5715,-0.012158477,-56.10967021
2.573,-0.01217924,-56.14471076
2.5745,-0.012200049,-56.17976561
2.576,-0.012220904,-56.21483494
2.5775,-0.012241806,-56.24991899
2.579,-0.012262755,-56.28501795
2.5805,-0.01228375,-56.32013205
2.582,-0.012304793,-56.35526153
2.5835,-0.012325884,-56.3904066
2.585,-0.012347023,-56.42556751
2.5865,-0.012368211,-56.4607445
2.588,-0.012389447,-56.49593782
2.5895,-0.012410733,-56.53114772
2.591,-0.012432069,-56.56637447
2.5925,-0.012453454,-56.60161833
2.594,-0.01247489,-56.63687957
2.5955,-0.012496378,-56.67215848
2.597,-0.012517916,-56.70745534
2.5985,-0.012539506,-56.74277045
2.6,-0.012561149,-56.7781041
2.6015,-0.012582844,-56.81345662
2.603,-0.012604593,-56.84882832
2.6045,-0.012626396,-56.88421951
2.606,-0.012648252,-56.91963055
2.6075,-0.012670164,-56.95506177
2.609,-0.012692131,-56.99051351
2.6105,-0.012714154,-57.02598615
2.612,-0.012736233,-57.06148006
2.6135,-0.01275837,-57.09699561
2.615,-0.012780564,-57.1325332
2.6165,-0.012802816,-57.16809323
2.618,-0.012825128,-57.20367611
2.6195,-0.012847499,-57.23928226
2.621,-0.012869931,-57.27491213
2.6225,-0.012892424,-57.31056615
2.624,-0.012914978,-57.34624479
2.6255,-0.012937595,-57.38194853
2.627,-0.012960276,-57.41767785
2.6285,-0.012983021,-57.45343325
2.63,-0.01300583,-57.48921525
2.6315,-0.013028706,-57.52502437
2.633,-0.013051649,-57.56086117
2.6345,-0.013074659,-57.59672621
2.636,-0.013097738,-57.63262006
2.6375,-0.013120886,-57.66854333
2.639,-0.013144105,-57.70449662
2.6405,-0.013167396,-57.74048057
2.642,-0.01319076,-57.77649584
2.6435,-0.013214198,-57.8125431
2.645,-0.013237711,-57.84862303
2.6465,-0.0132613,-57.88473637
2.648,-0.013284967,-57.92088384
2.6495,-0.013308713,-57.9570662
2.651,-0.013332539,-57.99328426
2.6525,-0.013356446,-58.02953881
2.654,-0.013380437,-58.06583069
2.6555,-0.013404513,-58.10216079
2.657,-0.013428675,-58.13852998
2.6585,-0.013452925,-58.17493919
2.66,-0.013477265,-58.21138939
2.6615,-0.013501696,-58.24788157
2.663,-0.01352622,-58.28441673
2.6645,-0.013550839,-58.32099596
2.666,-0.013575556,-58.35762034
2.6675,-0.013600372,-58.39429101
2.669,-0.013625289,-58.43100914
2.6705,-0.01365031,-58.46777596
2.672,-0.013675437,-58.50459273
2.6735,-0.013700673,-58.54146075
2.675,-0.013726019,-58.57838139
2.6765,-0.01375148,-58.61535606
2.678,-0.013777057,-58.65238621
2.6795,-0.013802754,-58.68947336
2.681,-0.013828573,-58.72661909
2.6825,-0.013854518,-58.76382505
2.684,-0.013880593,-58.80109292
2.6855,-0.0139068,-58.83842447
2.687,-0.013933143,-58.87582156
2.6885,-0.013959627,-58.91328609
2.69,-0.013986255,-58.95082006
2.6915,-0.014013032,-58.98842553
2.693,-0.014039961,-59.02610468
2.6945,-0.014067049,-59.06385975
2.696,-0.014094299,-59.10169309
2.6975,-0.014121717,-59.13960716
2.699,-0.014149308,-59.1776045
2.7005,-0.014177079,-59.21568779
2.702,-0.014205035,-59.25385982
2.7035,-0.014233182,-59.29212349
2.705,-0.014261527,-59.33048186
2.7065,-0.014290078,-59.36893811
2.708,-0.014318842,-59.40749557
2.7095,-0.014347827,-59.44615773
2.711,-0.014377041,-59.48492826
2.7125,-0.014406493,-59.52381099
2.714,-0.014436193,-59.56280993
2.7155,-0.01446615,-59.60192932
2.717,-0.014496375,-59.64117357
2.7185,-0.01452688,-59.68054736
2.72,-0.014557676,-59.72005557
2.7215,-0.014588776,-59.75970336
2.723,-0.014620193,-59.79949615
2.7245,-0.014651942,-59.83943966
2.726,-0.014684039,-59.87953989
2.7275,-0.014716499,-59.91980322
2.729,-0.01474934,-59.96023633
2.7305,-0.014782581,-60.00084633
2.732,-0.014816241,-60.0416407
2.7335,-0.014850343,-60.08262736
2.735,-0.014884908,-60.12381471
2.7365,-0.014919962,-60.16521165
2.738,-0.014955531,-60.2068276
2.7395,-0.014991643,-60.2486726
2.741,-0.015028329,-60.29075728
2.7425,-0.015065623,-60.33309296
2.744,-0.015103558,-60.37569171
2.7455,-0.015142175,-60.41856638
2.747,-0.015181515,-60.46173066
2.7485,-0.015221622,-60.5051992
2.75,-0.015262546,-60.54898765
2.7515,-0.01530434,-60.59311276
2.753,-0.015347061,-60.6375925
2.7545,-0.015390773,-60.6824461
2.756,-0.015435545,-60.72769429
2.7575,-0.015481451,-60.7733593
2.759,-0.015528574,-60.81946513
2.7605,-0.015577005,-60.86603763
2.762,-0.015626842,-60.91310475
2.7635,-0.015678196,-60.96069671
2.765,-0.015731186,-61.00884628
2.7665,-0.015785946,-61.05758901
2.768,-0.015842624,-61.10696354
2.7695,-0.015901384,-61.157012
2.771,-0.015962408,-61.20778032
2.7725,-0.016025901,-61.25931875
2.774,-0.016092089,-61.31168232
2.7755,-0.01616123,-61.36493147
2.777,-0.01623361,-61.41913269
2.7785,-0.016309554,-61.47435934
2.78,-0.016389429,-61.53069251
2.7815,-0.016473651,-61.58822212
2.783,-0.016562695,-61.64704811
2.7845,-0.016657104,-61.7072819
2.786,-0.016757499,-61.76904807
2.7875,-0.016864598,-61.83248638
2.789,-0.016979231,-61.89775417
2.7905,-0.017102363,-61.96502914
2.792,-0.017235119,-62.03451286
2.7935,-0.017378822,-62.10643482
2.795,-0.017535032,-62.18105749
2.7965,-0.017705602,-62.25868245
2.798,-0.017892745,-62.33965797
2.7995,-0.018099123,-62.42438838
2.801,-0.01832796,-62.51334583
2.8025,-0.018583195,-62.60708517
2.804,-0.018869674,-62.70626281
2.8055,-0.019193424,-62.81166111
2.807,-0.019562011,-62.92422012
2.8085,-0.01998504,-63.04507933
2.81,-0.020474852,-63.17563363
2.8115,-0.021047527,-63.31760896
2.813,-0.021724326,-63.47316673
2.8145,-0.022533842,-63.64505038
2.816,-0.023515274,-63.83679524
2.8175,-0.024723524,-64.05303637
2.819,-0.02623744,-64.29997184
2.8205,-0.028173555,-64.58608165
2.822,-0.030710029,-64.92328319
2.8235,-0.034130429,-65.3288668
2.825,-0.038908632,-65.82890295
2.8265,-0.04588578,-66.46461229
2.828,-0.05667378,-67.3052038
2.8295,-0.074689026,-68.47636442
2.831,-0.108251574,-70.23214716
2.8325,-0.182237467,-73.17233695
2.834,-0.400946288,-79.10845227
2.8355,-1.629163029,-96.55233174
2.837,-10.32879011,14.60002312
2.8385,-0.869170029,-36.26595798
2.84,-0.280704949,-47.4996878
2.8415,-0.14122744,-52.01175909
2.843,-0.08830742,-54.42872858
2.8445,-0.062867089,-55.93778048
2.846,-0.048762511,-56.97369525
2.8475,-0.04016017,-57.73233025
2.849,-0.034543143,-58.31469221
2.8505,-0.030682848,-58.77809292
2.852,-0.027922347,-59.15745027
2.8535,-0.025884806,-59.47524461
2.855,-0.024341652,-59.74660021
2.8565,-0.023147787,-59.98206502
2.858,-0.022207552,-60.18921899
2.8595,-0.021455839,-60.37364899
2.861,-0.020847102,-60.53956325
2.8625,-0.020348719,-60.69019176
2.864,-0.019936835,-60.82805482
2.8655,-0.019593686,-60.95514777
2.867,-0.019305827,-61.07307087
2.8685,-0.019062933,-61.18312245
2.87,-0.01885697,-61.28636689
2.8715,-0.018681614,-61.38368505
2.873,-0.018531834,-61.47581217
2.8745,-0.018403585,-61.56336676
2.876,-0.018293588,-61.6468729
2.8775,-0.018199163,-61.72677756
2.879,-0.018118102,-61.80346432
2.8805,-0.018048571,-61.87726419
2.882,-0.017989042,-61.94846432
2.8835,-0.017938228,-62.01731504
2.885,-0.017895043,-62.08403558
2.8865,-0.017858565,-62.14881875
2.888,-0.017828005,-62.2118348
2.8895,-0.017802687,-62.27323461
2.891,-0.017782028,-62.33315242
2.8925,-0.017765526,-62.391708
2.894,-0.017752742,-62.44900859
2.8955,-0.017743295,-62.50515047
2.897,-0.01773685,-62.56022036
2.8985,-0.017733116,-62.61429653
2.9,-0.017731833,-62.66744986
2.9015,-0.017732773,-62.71974464
2.903,-0.017735735,-62.77123935
2.9045,-0.017740539,-62.82198728
2.906,-0.017747026,-62.87203714
2.9075,-0.017755052,-62.92143347
2.909,-0.01776449,-62.97021714
2.9105,-0.017775226,-63.01842568
2.912,-0.017787156,-63.06609364
2.9135,-0.017800188,-63.11325287
2.915,-0.017814238,-63.15993276
2.9165,-0.01782923,-63.20616052
2.918,-0.017845095,-63.25196133
2.9195,-0.017861772,-63.29735854
2.921,-0.017879203,-63.34237386
2.9225,-0.017897338,-63.38702747
2.924,-0.017916128,-63.43133816
2.9255,-0.017935531,-63.47532344
2.927,-0.017955508,-63.51899969
