Freq [GHz],"dB(S(1,1)) []","ang_deg(S(1,1)) [deg]"
2,-0.005458347,-45.83141482
2.0015,-0.005464492,-45.86843305
2.003,-0.00547065,-45.90546311
2.0045,-0.00547682,-45.94250507
2.006,-0.005483002,-45.97955898
2.0075,-0.005489198,-46.0166249
2.009,-0.005495406,-46.0537029
2.0105,-0.005501627,-46.09079303
2.012,-0.005507861,-46.12789536
2.0135,-0.005514107,-46.16500994
2.015,-0.005520366,-46.20213684
2.0165,-0.005526639,-46.23927613
2.018,-0.005532924,-46.27642786
2.0195,-0.005539222,-46.31359209
2.021,-0.005545533,-46.3507689
2.0225,-0.005551858,-46.38795834
2.024,-0.005558195,-46.42516049
2.0255,-0.005564546,-46.4623754
2.027,-0.005570909,-46.49960314
2.0285,-0.005577286,-46.53684379
2.03,-0.005583677,-46.57409739
2.0315,-0.00559008,-46.61136403
2.033,-0.005596497,-46.64864378
2.0345,-0.005602928,-46.68593669
2.036,-0.005609371,-46.72324284
2.0375,-0.005615829,-46.76056229
2.039,-0.005622299,-46.79789513
2.0405,-0.005628784,-46.83524141
2.042,-0.005635282,-46.87260122
2.0435,-0.005641794,-46.90997461
2.045,-0.005648319,-46.94736167
2.0465,-0.005654858,-46.98476247
2.048,-0.005661411,-47.02217707
2.0495,-0.005667978,-47.05960556
2.051,-0.005674559,-47.09704801
2.0525,-0.005681153,-47.13450449
2.054,-0.005687762,-47.17197509
2.0555,-0.005694385,-47.20945987
2.057,-0.005701021,-47.24695891
2.0585,-0.005707672,-47.28447229
2.06,-0.005714338,-47.32200009
2.0615,-0.005721017,-47.35954239
2.063,-0.005727711,-47.39709927
2.0645,-0.005734419,-47.4346708
2.066,-0.005741141,-47.47225708
2.0675,-0.005747878,-47.50985817
2.069,-0.005754629,-47.54747417
2.0705,-0.005761395,-47.58510515
2.072,-0.005768175,-47.6227512
2.0735,-0.00577497,-47.6604124
2.075,-0.00578178,-47.69808884
2.0765,-0.005788605,-47.7357806
2.078,-0.005795444,-47.77348777
2.0795,-0.005802298,-47.81121044
2.081,-0.005809167,-47.84894869
2.0825,-0.005816051,-47.88670261
2.084,-0.00582295,-47.9244723
2.0855,-0.005829865,-47.96225784
2.087,-0.005836794,-48.00005932
2.0885,-0.005843739,-48.03787683
2.09,-0.005850698,-48.07571047
2.0915,-0.005857673,-48.11356033
2.093,-0.005864664,-48.15142649
2.0945,-0.00587167,-48.18930907
2.096,-0.005878691,-48.22720815
2.0975,-0.005885728,-48.26512383
2.099,-0.005892781,-48.3030562
2.1005,-0.005899849,-48.34100537
2.102,-0.005906933,-48.37897143
2.1035,-0.005914033,-48.41695448
2.105,-0.005921148,-48.45495462
2.1065,-0.00592828,-48.49297195
2.108,-0.005935427,-48.53100658
2.1095,-0.005942591,-48.56905861
2.111,-0.005949771,-48.60712814
2.1125,-0.005956967,-48.64521528
2.114,-0.005964179,-48.68332012
2.1155,-0.005971407,-48.72144279
2.117,-0.005978652,-48.75958339
2.1185,-0.005985913,-48.79774201
2.12,-0.005993191,-48.83591879
2.1215,-0.006000486,-48.87411381
2.123,-0.006007797,-48.91232721
2.1245,-0.006015124,-48.95055908
2.126,-0.006022469,-48.98880955
2.1275,-0.00602983,-49.02707872
2.129,-0.006037209,-49.06536671
2.1305,-0.006044604,-49.10367364
2.132,-0.006052017,-49.14199963
2.1335,-0.006059447,-49.18034479
2.135,-0.006066893,-49.21870924
2.1365,-0.006074358,-49.25709311
2.138,-0.006081839,-49.29549651
2.1395,-0.006089339,-49.33391957
2.141,-0.006096855,-49.37236242
2.1425,-0.00610439,-49.41082517
2.144,-0.006111942,-49.44930796
2.1455,-0.006119511,-49.48781091
2.147,-0.006127099,-49.52633415
2.1485,-0.006134705,-49.56487781
2.15,-0.006142328,-49.60344202
2.1515,-0.00614997,-49.64202692
2.153,-0.00615763,-49.68063263
2.1545,-0.006165309,-49.71925929
2.156,-0.006173005,-49.75790704
2.1575,-0.00618072,-49.79657602
2.159,-0.006188454,-49.83526636
2.1605,-0.006196207,-49.8739782
2.162,-0.006203978,-49.91271168
2.1635,-0.006211768,-49.95146695
2.165,-0.006219576,-49.99024415
2.1665,-0.006227404,-50.02904343
2.168,-0.006235251,-50.06786492
2.1695,-0.006243117,-50.10670879
2.171,-0.006251003,-50.14557518
2.1725,-0.006258908,-50.18446423
2.174,-0.006266832,-50.22337611
2.1755,-0.006274776,-50.26231096
2.177,-0.006282739,-50.30126894
2.1785,-0.006290723,-50.34025021
2.18,-0.006298726,-50.37925493
2.1815,-0.006306749,-50.41828325
2.183,-0.006314793,-50.45733534
2.1845,-0.006322856,-50.49641136
2.186,-0.00633094,-50.53551147
2.1875,-0.006339044,-50.57463584
2.189,-0.006347169,-50.61378464
2.1905,-0.006355314,-50.65295804
2.192,-0.00636348,-50.6921562
2.1935,-0.006371667,-50.73137931
2.195,-0.006379875,-50.77062753
2.1965,-0.006388104,-50.80990104
2.198,-0.006396355,-50.84920002
2.1995,-0.006404626,-50.88852465
2.201,-0.006412919,-50.92787511
2.2025,-0.006421234,-50.96725159
2.204,-0.00642957,-51.00665426
2.2055,-0.006437928,-51.04608332
2.207,-0.006446308,-51.08553896
2.2085,-0.00645471,-51.12502136
2.21,-0.006463134,-51.16453073
2.2115,-0.00647158,-51.20406725
2.213,-0.006480049,-51.24363112
2.2145,-0.00648854,-51.28322253
2.216,-0.006497054,-51.32284171
2.2175,-0.006505591,-51.36248883
2.219,-0.006514151,-51.40216412
2.2205,-0.006522734,-51.44186777
2.222,-0.00653134,-51.4816
2.2235,-0.006539969,-51.52136102
2.225,-0.006548622,-51.56115104
2.2265,-0.006557299,-51.60097027
2.228,-0.006565999,-51.64081895
2.2295,-0.006574724,-51.68069728
2.231,-0.006583472,-51.72060549
2.2325,-0.006592245,-51.76054381
2.234,-0.006601042,-51.80051246
2.2355,-0.006609864,-51.84051168
2.237,-0.00661871,-51.88054169
2.2385,-0.006627581,-51.92060274
2.24,-0.006636478,-51.96069506
2.2415,-0.006645399,-52.00081889
2.243,-0.006654346,-52.04097447
2.2445,-0.006663318,-52.08116205
2.246,-0.006672316,-52.12138188
2.2475,-0.00668134,-52.16163421
2.249,-0.00669039,-52.20191929
2.2505,-0.006699466,-52.24223738
2.252,-0.006708568,-52.28258874
2.2535,-0.006717697,-52.32297364
2.255,-0.006726853,-52.36339233
2.2565,-0.006736035,-52.40384508
2.258,-0.006745245,-52.44433217
2.2595,-0.006754482,-52.48485387
2.261,-0.006763746,-52.52541046
2.2625,-0.006773038,-52.56600222
2.264,-0.006782358,-52.60662943
2.2655,-0.006791706,-52.64729238
2.267,-0.006801082,-52.68799136
2.2685,-0.006810487,-52.72872667
2.27,-0.00681992,-52.76949859
2.2715,-0.006829382,-52.81030743
2.273,-0.006838873,-52.8511535
2.2745,-0.006848394,-52.89203709
2.276,-0.006857944,-52.93295853
2.2775,-0.006867523,-52.97391812
2.279,-0.006877133,-53.01491619
2.2805,-0.006886773,-53.05595306
2.282,-0.006896443,-53.09702904
2.2835,-0.006906144,-53.13814447
2.285,-0.006915875,-53.17929969
2.2865,-0.006925638,-53.22049503
2.288,-0.006935432,-53.26173083
2.2895,-0.006945258,-53.30300744
2.291,-0.006955115,-53.34432521
2.2925,-0.006965005,-53.38568448
2.294,-0.006974926,-53.42708562
2.2955,-0.006984881,-53.468529
2.297,-0.006994868,-53.51001496
2.2985,-0.007004888,-53.5515439
2.3,-0.007014942,-53.59311618
2.3015,-0.007025029,-53.63473218
2.303,-0.007035151,-53.67639228
2.3045,-0.007045306,-53.71809689
2.306,-0.007055496,-53.75984638
2.3075,-0.00706572,-53.80164117
2.309,-0.00707598,-53.84348164
2.3105,-0.007086275,-53.88536822
2.312,-0.007096606,-53.92730131
2.3135,-0.007106972,-53.96928134
2.315,-0.007117375,-54.01130873
2.3165,-0.007127814,-54.05338391
2.318,-0.007138291,-54.09550732
2.3195,-0.007148804,-54.13767939
2.321,-0.007159355,-54.17990057
2.3225,-0.007169944,-54.22217131
2.324,-0.007180571,-54.26449208
2.3255,-0.007191237,-54.30686333
2.327,-0.007201941,-54.34928554
2.3285,-0.007212685,-54.39175918
2.33,-0.007223468,-54.43428473
2.3315,-0.007234291,-54.47686268
2.333,-0.007245155,-54.51949352
2.3345,-0.007256059,-54.56217777
2.336,-0.007267004,-54.60491591
2.3375,-0.007277991,-54.64770847
2.339,-0.007289019,-54.69055598
2.3405,-0.00730009,-54.73345894
2.342,-0.007311203,-54.77641792
2.3435,-0.00732236,-54.81943343
2.345,-0.00733356,-54.86250604
2.3465,-0.007344803,-54.90563629
2.348,-0.007356092,-54.94882477
2.3495,-0.007367424,-54.99207202
2.351,-0.007378802,-55.03537865
2.3525,-0.007390226,-55.07874522
2.354,-0.007401696,-55.12217235
2.3555,-0.007413212,-55.16566062
2.357,-0.007424775,-55.20921066
2.3585,-0.007436386,-55.25282309
2.36,-0.007448045,-55.29649853
2.3615,-0.007459752,-55.34023763
2.363,-0.007471508,-55.38404102
2.3645,-0.007483314,-55.42790936
2.366,-0.00749517,-55.47184333
2.3675,-0.007507076,-55.51584359
2.369,-0.007519033,-55.55991083
2.3705,-0.007531042,-55.60404574
2.372,-0.007543103,-55.64824903
2.3735,-0.007555217,-55.6925214
2.375,-0.007567384,-55.73686359
2.3765,-0.007579605,-55.78127633
2.378,-0.007591881,-55.82576036
2.3795,-0.007604211,-55.87031643
2.381,-0.007616598,-55.91494533
2.3825,-0.00762904,-55.95964781
2.384,-0.00764154,-56.00442468
2.3855,-0.007654097,-56.04927674
2.387,-0.007666712,-56.09420479
2.3885,-0.007679387,-56.13920966
2.39,-0.007692121,-56.1842922
2.3915,-0.007704915,-56.22945324
2.393,-0.00771777,-56.27469366
2.3945,-0.007730687,-56.32001432
2.396,-0.007743666,-56.36541612
2.3975,-0.007756709,-56.41089996
2.399,-0.007769815,-56.45646676
2.4005,-0.007782986,-56.50211744
2.402,-0.007796223,-56.54785296
2.4035,-0.007809526,-56.59367426
2.405,-0.007822896,-56.63958233
2.4065,-0.007836334,-56.68557816
2.408,-0.007849841,-56.73166274
2.4095,-0.007863417,-56.7778371
2.411,-0.007877064,-56.82410227
2.4125,-0.007890782,-56.87045931
2.414,-0.007904573,-56.91690929
2.4155,-0.007918437,-56.96345329
2.417,-0.007932375,-57.01009242
2.4185,-0.007946388,-57.0568278
2.42,-0.007960477,-57.10366057
2.4215,-0.007974643,-57.15059189
2.423,-0.007988887,-57.19762293
2.4245,-0.008003211,-57.24475489
2.426,-0.008017615,-57.29198899
2.4275,-0.0080321,-57.33932646
2.429,-0.008046667,-57.38676856
2.4305,-0.008061318,-57.43431657
2.432,-0.008076054,-57.48197178
2.4335,-0.008090875,-57.52973552
2.435,-0.008105783,-57.57760912
2.4365,-0.00812078,-57.62559395
2.438,-0.008135866,-57.67369141
2.4395,-0.008151042,-57.72190289
2.441,-0.008166311,-57.77022985
2.4425,-0.008181673,-57.81867373
2.444,-0.00819713,-57.86723603
2.4455,-0.008212682,-57.91591825
2.447,-0.008228332,-57.96472193
2.4485,-0.008244081,-58.01364865
2.45,-0.008259931,-58.06269998
2.4515,-0.008275881,-58.11187755
2.453,-0.008291936,-58.16118301
2.4545,-0.008308095,-58.21061804
2.456,-0.00832436,-58.26018434
2.4575,-0.008340734,-58.30988366
2.459,-0.008357217,-58.35971776
2.4605,-0.008373812,-58.40968844
2.462,-0.00839052,-58.45979755
2.4635,-0.008407342,-58.51004694
2.465,-0.008424281,-58.56043853
2.4665,-0.008441339,-58.61097425
2.468,-0.008458517,-58.66165607
2.4695,-0.008475818,-58.712486
2.471,-0.008493243,-58.7634661
2.4725,-0.008510794,-58.81459844
2.474,-0.008528473,-58.86588515
2.4755,-0.008546283,-58.91732841
2.477,-0.008564225,-58.96893041
2.4785,-0.008582303,-59.02069341
2.48,-0.008600517,-59.0726197
2.4815,-0.008618871,-59.12471162
2.483,-0.008637366,-59.17697155
2.4845,-0.008656005,-59.22940192
2.486,-0.008674791,-59.2820052
2.4875,-0.008693727,-59.33478392
2.489,-0.008712814,-59.38774067
2.4905,-0.008732055,-59.44087805
2.492,-0.008751453,-59.49419876
2.4935,-0.008771011,-59.54770553
2.495,-0.008790732,-59.60140115
2.4965,-0.008810619,-59.65528845
2.498,-0.008830674,-59.70937036
2.4995,-0.0088509,-59.76364982
2.501,-0.008871302,-59.81812986
2.5025,-0.008891882,-59.87281357
2.504,-0.008912642,-59.9277041
2.5055,-0.008933588,-59.98280467
2.507,-0.008954722,-60.03811857
2.5085,-0.008976047,-60.09364914
2.51,-0.008997568,-60.14939981
2.5115,-0.009019288,-60.20537409
2.513,-0.009041211,-60.26157555
2.5145,-0.00906334,-60.31800784
2.516,-0.009085681,-60.37467468
2.5175,-0.009108237,-60.43157991
2.519,-0.009131012,-60.4887274
2.5205,-0.009154011,-60.54612115
2.522,-0.009177238,-60.60376522
2.5235,-0.009200697,-60.66166379
2.525,-0.009224395,-60.7198211
2.5265,-0.009248334,-60.77824151
2.528,-0.009272521,-60.83692946
2.5295,-0.009296961,-60.89588952
2.531,-0.009321658,-60.95512635
2.5325,-0.009346619,-61.0146447
2.534,-0.009371849,-61.07444945
2.5355,-0.009397353,-61.1345456
2.537,-0.009423137,-61.19493825
2.5385,-0.009449208,-61.25563264
2.54,-0.009475572,-61.31663412
2.5415,-0.009502235,-61.37794816
2.543,-0.009529204,-61.43958039
2.5445,-0.009556486,-61.50153656
2.546,-0.009584087,-61.56382255
2.5475,-0.009612015,-61.62644441
2.549,-0.009640278,-61.68940831
2.5505,-0.009668882,-61.7527206
2.552,-0.009697837,-61.81638778
2.5535,-0.009727149,-61.8804165
2.555,-0.009756828,-61.94481359
2.5565,-0.009786882,-62.00958607
2.558,-0.009817319,-62.07474111
2.5595,-0.00984815,-62.14028608
2.561,-0.009879384,-62.20622854
2.5625,-0.00991103,-62.27257626
2.564,-0.009943099,-62.33933718
2.5655,-0.0099756,-62.4065195
2.567,-0.010008545,-62.47413159
2.5685,-0.010041946,-62.54218209
2.57,-0.010075812,-62.61067983
2.5715,-0.010110157,-62.6796339
2.573,-0.010144992,-62.74905366
2.5745,-0.01018033,-62.8189487
2.576,-0.010216185,-62.88932887
2.5775,-0.010252569,-62.96020434
2.579,-0.010289497,-63.03158551
2.5805,-0.010326983,-63.10348312
2.582,-0.010365043,-63.17590819
2.5835,-0.010403691,-63.24887207
2.585,-0.010442945,-63.32238644
2.5865,-0.010482819,-63.39646332
2.588,-0.010523333,-63.47111507
2.5895,-0.010564503,-63.54635443
2.591,-0.010606349,-63.62219453
2.5925,-0.010648888,-63.69864887
2.594,-0.010692142,-63.77573138
2.5955,-0.010736131,-63.8534564
2.597,-0.010780877,-63.93183873
2.5985,-0.010826401,-64.01089361
2.6,-0.010872726,-64.09063677
2.6015,-0.010919877,-64.17108442
2.603,-0.010967879,-64.2522533
2.6045,-0.011016757,-64.33416069
2.606,-0.011066539,-64.4168244
2.6075,-0.011117252,-64.50026286
2.609,-0.011168925,-64.58449506
2.6105,-0.011221589,-64.66954065
2.612,-0.011275275,-64.75541993
2.6135,-0.011330016,-64.84215387
2.615,-0.011385847,-64.92976415
2.6165,-0.011442802,-65.01827322
2.618,-0.011500919,-65.10770427
2.6195,-0.011560236,-65.1980813
2.621,-0.011620794,-65.28942918
2.6225,-0.011682635,-65.38177364
2.624,-0.011745803,-65.47514132
2.6255,-0.011810344,-65.56955983
2.627,-0.011876305,-65.66505779
2.6285,-0.011943737,-65.76166487
2.63,-0.012012692,-65.85941182
2.6315,-0.012083225,-65.95833055
2.633,-0.012155393,-66.05845419
2.6345,-0.012229255,-66.1598171
2.636,-0.012304876,-66.26245498
2.6375,-0.01238232,-66.36640491
2.639,-0.012461656,-66.47170543
2.6405,-0.012542957,-66.5783966
2.642,-0.012626298,-66.68652008
2.6435,-0.01271176,-66.7961192
2.645,-0.012799425,-66.90723909
2.6465,-0.012889381,-67.0199267
2.648,-0.012981721,-67.13423096
2.6495,-0.013076542,-67.25020284
2.651,-0.013173946,-67.36789549
2.6525,-0.01327404,-67.48736433
2.654,-0.013376937,-67.6086672
2.6555,-0.013482758,-67.73186447
2.657,-0.013591627,-67.85701919
2.6585,-0.013703679,-67.98419722
2.66,-0.013819052,-68.11346744
2.6615,-0.013937895,-68.24490187
2.663,-0.014060365,-68.37857587
2.6645,-0.014186628,-68.51456835
2.666,-0.014316858,-68.65296195
2.6675,-0.014451242,-68.7938433
2.669,-0.014589977,-68.93730323
2.6705,-0.014733271,-69.08343705
2.672,-0.014881346,-69.23234482
2.6735,-0.015034438,-69.38413165
2.675,-0.015192798,-69.538908
2.6765,-0.01535669,-69.69679008
2.678,-0.0155264,-69.85790017
2.6795,-0.015702229,-70.02236704
2.681,-0.015884499,-70.19032641
2.6825,-0.016073555,-70.36192139
2.684,-0.016269764,-70.53730301
2.6855,-0.016473518,-70.71663075
2.687,-0.016685238,-70.90007316
2.6885,-0.016905376,-71.08780851
2.69,-0.017134412,-71.2800255
2.6915,-0.017372867,-71.47692401
2.693,-0.017621296,-71.67871596
2.6945,-0.0178803,-71.88562623
2.696,-0.018150523,-72.09789365
2.6975,-0.01843266,-72.31577209
2.699,-0.018727463,-72.53953167
2.7005,-0.019035741,-72.76946007
2.702,-0.019358371,-73.005864
2.7035,-0.019696305,-73.24907074
2.705,-0.020050573,-73.49942994
2.7065,-0.020422292,-73.75731552
2.708,-0.020812681,-74.02312782
2.7095,-0.021223065,-74.29729599
2.711,-0.021654889,-74.58028054
2.7125,-0.022109733,-74.87257631
2.714,-0.022589323,-75.17471572
2.7155,-0.023095553,-75.48727232
2.717,-0.023630502,-75.81086487
2.7185,-0.024196453,-76.14616186
2.72,-0.024795926,-76.49388653
2.7215,-0.025431697,-76.8548226
2.723,-0.026106839,-77.22982068
2.7245,-0.026824757,-77.61980548
2.726,-0.027589231,-78.02578401
2.7275,-0.028404468,-78.44885489
2.729,-0.029275159,-78.8902189
2.7305,-0.030206551,-79.35119103
2.732,-0.031204523,-79.83321427
2.7335,-0.03227568,-80.33787543
2.735,-0.033427465,-80.8669233
2.7365,-0.034668286,-81.42228965
2.738,-0.03600767,-82.00611352
2.7395,-0.037456442,-82.62076944
2.741,-0.039026947,-83.2689003
2.7425,-0.040733303,-83.95345583
2.744,-0.042591716,-84.67773783
2.7455,-0.044620852,-85.44545337
2.747,-0.046842297,-86.26077792
2.7485,-0.049281109,-87.1284303
2.75,-0.051966496,-88.05376222
2.7515,-0.054932652,-89.04286573
2.753,-0.058219785,-90.10270275
2.7545,-0.061875403,-91.24126187
2.756,-0.065955905,-92.46774946
2.7575,-0.070528589,-93.79282344
2.759,-0.075674174,-95.22888089
2.7605,-0.081489997,-96.7904139
2.762,-0.088094074,-98.49445191
2.7635,-0.095630274,-100.3611146
2.765,-0.104274923,-102.4143058
2.7665,-0.114245241,-104.6825886
2.768,-0.12581006,-107.2002913
2.7695,-0.139303337,-110.0089077
2.771,-0.15514088,-113.1588665
2.7725,-0.173840368,-116.7117553
2.774,-0.196043759,-120.7430775
2.7755,-0.222538928,-125.3455828
2.777,-0.254272414,-130.6330928
2.7785,-0.292335179,-136.7444524
2.78,-0.337884457,-143.8466208
2.7815,-0.391933209,-152.1346934
2.783,-0.454896837,-161.8244971
2.7845,-0.525765216,-173.1302912
2.786,-0.600869365,173.7825686
2.7875,-0.672634671,158.8772677
2.789,-0.729534948,142.3464946
2.7905,-0.758928231,124.6857748
2.792,-0.752750315,106.6612812
2.7935,-0.712270406,89.13733393
2.795,-0.647388652,72.84433911
2.7965,-0.571149603,58.22704742
2.798,-0.494420665,45.43435268
2.7995,-0.423795207,34.40211222
2.801,-0.362105323,24.95269347
2.8025,-0.309797673,16.86930747
2.804,-0.266127334,9.938573055
2.8055,-0.229908326,3.969765563
2.807,-0.199902794,-1.199382987
2.8085,-0.174989584,-5.703415333
2.81,-0.154217736,-9.652478572
2.8115,-0.13680712,-13.13629509
2.813,-0.122128505,-16.22791882
2.8145,-0.10967828,-18.98697237
2.816,-0.099054299,-21.46231267
2.8175,-0.089935112,-23.69417508
2.819,-0.082062992,-25.71587763
2.8205,-0.075230413,-27.55516894
2.822,-0.06926944,-29.23529307
2.8235,-0.064043438,-30.77583228
2.825,-0.059440618,-32.19337586
2.8265,-0.055369007,-33.50205344
2.828,-0.051752513,-34.71396193
2.8295,-0.048527841,-35.83950929
2.831,-0.045642064,-36.88769269
2.8325,-0.043050694,-37.86632475
2.834,-0.040716159,-38.78221855
2.8355,-0.038606574,-39.64133977
2.837,-0.03669476,-40.44893227
2.8385,-0.034957448,-41.20962246
2.84,-0.033374634,-41.92750628
2.8415,-0.031929053,-42.6062221
2.843,-0.03060575,-43.24901212
2.8445,-0.029391718,-43.85877422
2.846,-0.028275613,-44.43810603
2.8475,-0.027247503,-44.98934238
2.849,-0.026298666,-45.51458742
2.8505,-0.02542142,-46.01574217
2.852,-0.02460898,-46.49452823
2.8535,-0.023855335,-46.9525083
2.855,-0.023155146,-47.39110392
2.8565,-0.022503659,-47.81161097
2.858,-0.021896631,-48.21521316
2.8595,-0.021330266,-48.60299381
2.861,-0.020801158,-48.97594621
2.8625,-0.020306248,-49.3349827
2.864,-0.019842779,-49.68094276
2.8655,-0.019408265,-50.01460004
2.867,-0.019000457,-50.3366687
2.8685,-0.018617318,-50.64780894
2.87,-0.018256999,-50.94863202
2.8715,-0.01791782,-51.23970469
2.873,-0.017598249,-51.52155312
2.8745,-0.017296892,-51.79466646
2.876,-0.017012473,-52.05950005
2.8775,-0.016743824,-52.31647825
2.879,-0.016489878,-52.56599704
2.8805,-0.016249651,-52.80842633
2.882,-0.016022244,-53.04411208
2.8835,-0.015806826,-53.27337818
2.885,-0.015602633,-53.49652818
2.8865,-0.015408961,-53.71384688
2.888,-0.015225158,-53.92560172
2.8895,-0.015050622,-54.1320441
2.891,-0.014884796,-54.33341054
2.8925,-0.014727164,-54.52992379
2.894,-0.014577246,-54.7217938
2.8955,-0.014434596,-54.9092186
2.897,-0.014298803,-55.09238517
2.8985,-0.014169479,-55.2714702
2.9,-0.014046267,-55.44664074
2.9015,-0.013928833,-55.6180549
2.903,-0.013816863,-55.78586239
2.9045,-0.013710067,-55.95020512
2.906,-0.013608172,-56.11121766
2.9075,-0.013510923,-56.26902772
2.909,-0.013418081,-56.4237566
2.9105,-0.013329422,-56.57551954
2.912,-0.013244736,-56.72442616
2.9135,-0.013163826,-56.87058071
2.915,-0.013086508,-57.0140825
2.9165,-0.013012606,-57.15502608
2.918,-0.012941958,-57.29350162
2.9195,-0.012874408,-57.42959507
2.921,-0.012809812,-57.56338849
2.9225,-0.012748033,-57.69496019
2.924,-0.012688942,-57.82438499
2.9255,-0.012632417,-57.9517344
2.927,-0.012578343,-58.0770768
